(1775153458.567358) can0 2B0#FF7FFF06F1
(1775153458.568787) can0 316#051BA50E1A21007F
(1775153458.569032) can0 18F#00260000005E0000
(1775153458.569267) can0 0A0#3754A50E00210200
(1775153458.569517) can0 002#0000000000000EAC
(1775153458.569760) can0 0A1#7F8E00001E000000
(1775153458.570002) can0 260#001A1A3000000000
(1775153458.570240) can0 130#308000FF38810EDD
(1775153458.570479) can0 140#0000000006261EA4
(1775153458.570730) can0 2A0#0000600000000000
(1775153458.570966) can0 329#0E7A7C101126000E
(1775153458.571200) can0 545#CA18008BCFFFCAFF
(1775153458.574520) can0 153#002100FF00FF607F
(1775153458.574760) can0 220#270400000A001610
(1775153458.575007) can0 1F1#0800000000000000
(1775153458.576886) can0 2B0#FF7FFF06C2
(1775153458.578644) can0 316#051BA50E1A21007F
(1775153458.578889) can0 18F#00260000005E0000
(1775153458.579126) can0 0A0#3754A50E00210200
(1775153458.579368) can0 0A1#7F8E00001E000000
(1775153458.579610) can0 260#001A1A3000000000
(1775153458.579859) can0 002#0000000000000FB1
(1775153458.580111) can0 2A0#0000600000000000
(1775153458.580347) can0 329#0E7A7C101126000E
(1775153458.580584) can0 130#2E8000FF51810FAB
(1775153458.580826) can0 140#0000000008291F13
(1775153458.581058) can0 545#CA18008CCFFFCAFF
(1775153458.583095) can0 4F0#0000000000000000
(1775153458.584746) can0 153#002100FF00FF708F
(1775153458.584986) can0 220#250400000A001710
(1775153458.586433) can0 2B0#FF7FFF06D3
(1775153458.588646) can0 316#051AB50E1A21007F
(1775153458.588879) can0 0A0#3754B50E00210200
(1775153458.589122) can0 0A1#7F8E00001E000000
(1775153458.589369) can0 18F#00260000005E0000
(1775153458.589609) can0 260#001A1A3000000000
(1775153458.589862) can0 2A0#0000600000000000
(1775153458.590113) can0 002#000000000000000A
(1775153458.590349) can0 329#0E7A7C101126000E
(1775153458.590582) can0 545#CA18008CC9FFC9FF
(1775153458.590826) can0 130#2E8000FF51810010
(1775153458.591065) can0 140#000000000A2010BD
(1775153458.594939) can0 153#002100FF00FF809F
(1775153458.595187) can0 1F1#0800000000000000
(1775153458.595428) can0 220#250400000A001710
(1775153458.595972) can0 2B0#FF7FFF06A4
(1775153458.598613) can0 316#051AB50E1A21007F
(1775153458.598859) can0 18F#00260000005E0000
(1775153458.599092) can0 0A0#3754B50E00210200
(1775153458.599336) can0 0A1#7F8E00001E000000
(1775153458.599578) can0 260#001A1A3000000000
(1775153458.599831) can0 2A0#0000600000000000
(1775153458.600065) can0 329#0E7A7C101126000E
(1775153458.600314) can0 002#0000000000000117
(1775153458.600548) can0 545#CA18008CC9FFC9FF
(1775153458.600718) can0 5E4#000000
(1775153458.601115) can0 130#328000FF43810114
(1775153458.601355) can0 140#000000000C2F1106
(1775153458.604405) can0 4F0#0000000000000000
(1775153458.605159) can0 153#002100FF00FF90AF
(1775153458.605400) can0 220#280400000A001610
(1775153458.605585) can0 2B0#FF7FFF06B5
(1775153458.608611) can0 316#051AB50E1A21007F
(1775153458.608857) can0 18F#00260000005E0000
(1775153458.609090) can0 0A0#3754B50E00210200
(1775153458.609334) can0 0A1#7F8E00001E000000
(1775153458.609575) can0 260#001A1A3000000000
(1775153458.609827) can0 2A0#0000600000000000
(1775153458.610060) can0 329#4F7A7C101126000E
(1775153458.610313) can0 002#0000000000000230
(1775153458.610545) can0 545#CA18008CC9FFC9FF
(1775153458.611082) can0 130#2E8000FF45810234
(1775153458.611321) can0 140#000000000E221219
(1775153458.615054) can0 2B0#FF7FFF0686
(1775153458.615355) can0 153#002100FF00FFA0BF
(1775153458.615596) can0 220#280400000A001610
(1775153458.615844) can0 1F1#0800000000000000
(1775153458.618558) can0 316#0519C80E1A21007F
(1775153458.618794) can0 0A0#3754C80E00210200
(1775153458.619037) can0 0A1#7F8E00001E000000
(1775153458.619283) can0 18F#00260000005E0000
(1775153458.619525) can0 260#001A1A3000000000
(1775153458.619776) can0 2A0#0000600000000000
(1775153458.620010) can0 329#4F7A7C101126000E
(1775153458.620248) can0 545#CA18008CC0FFCCFF
(1775153458.620522) can0 002#000000000000032D
(1775153458.621105) can0 130#2A8000FF4B810349
(1775153458.621349) can0 140#0000000010021360
(1775153458.623029) can0 4F0#0000000000000000
(1775153458.624596) can0 2B0#FF7FFF0697
(1775153458.625575) can0 153#002100FF00FFB0CF
(1775153458.625815) can0 220#270400000A001610
(1775153458.628557) can0 316#0519C80E1A21007F
(1775153458.628802) can0 18F#00260000005E0000
(1775153458.629038) can0 0A0#3754C80E00210200
(1775153458.629281) can0 0A1#7F8E00001E000000
(1775153458.629523) can0 260#001A1A3000000000
(1775153458.629774) can0 2A0#0000600000000000
(1775153458.630008) can0 329#4F7A7C101126000E
(1775153458.630240) can0 545#CA12008CC0FFC9FF
(1775153458.630717) can0 002#000000000000047E
(1775153458.631305) can0 130#2B8000FF3F810409
(1775153458.631547) can0 140#0000000012211491
(1775153458.634143) can0 2B0#FF7FFF0668
(1775153458.635771) can0 153#002100FF00FFC0DF
(1775153458.636011) can0 220#270400000A001610
(1775153458.636258) can0 1F1#0800000000000000
(1775153458.638619) can0 316#0519C80E1A21007F
(1775153458.638864) can0 18F#00260000005E0000
(1775153458.639100) can0 0A0#3754C80E00210200
(1775153458.639343) can0 0A1#7F8E00001E000000
(1775153458.639585) can0 260#001A1A3000000000
(1775153458.639837) can0 2A0#0000600000000000
(1775153458.640070) can0 329#4F7A7C101126000E
(1775153458.640302) can0 545#CA12008CC0FFC9FF
(1775153458.640939) can0 002#0000000000000563
(1775153458.641521) can0 130#2C8000FF3D810599
(1775153458.641763) can0 140#00000000142015C5
(1775153458.642968) can0 4F0#0000000000000000
(1775153458.643677) can0 2B0#FF7FFF0679
(1775153458.645992) can0 153#002100FF00FFD0EF
(1775153458.646235) can0 220#260400000A001410
(1775153458.648532) can0 316#0519C40E1A21007F
(1775153458.648776) can0 18F#00260000005E0000
(1775153458.649017) can0 0A0#3754C40E00210200
(1775153458.649261) can0 0A1#7F8E00001E000000
(1775153458.649503) can0 260#001A1A3000000000
(1775153458.649754) can0 2A0#0000600000000000
(1775153458.649988) can0 329#4F7A7C101126000E
(1775153458.650222) can0 545#CA12008BC2FFC9FF
(1775153458.651130) can0 002#0000000000000644
(1775153458.651986) can0 130#318000FF3E81066D
(1775153458.652225) can0 140#00000000162016E1
(1775153458.653315) can0 2B0#FF7FFF064A
(1775153458.656191) can0 153#002100FF00FFE0FF
(1775153458.656434) can0 220#260400000A001410
(1775153458.656681) can0 1F1#0800000000000000
(1775153458.658503) can0 316#0519C40E1A21007F
(1775153458.658749) can0 18F#00260000005E0000
(1775153458.658990) can0 0A0#3754C40E00210200
(1775153458.659234) can0 0A1#7F8E00001E000000
(1775153458.659476) can0 260#001A1A3000000000
(1775153458.659727) can0 2A0#0000600000000000
(1775153458.659961) can0 329#4F7A7C101126000E
(1775153458.660191) can0 545#CA12008CC2FFC9FF
(1775153458.661352) can0 002#0000000000000759
(1775153458.661995) can0 130#398000FF47810769
(1775153458.662238) can0 140#0000000018001780
(1775153458.662779) can0 2B0#FF7FFF065B
(1775153458.663029) can0 4F0#0000000000000000
(1775153458.666411) can0 153#002100FF00FF001F
(1775153458.666650) can0 220#260400000A001710
(1775153458.668728) can0 316#0519C40E1A21007F
(1775153458.668973) can0 18F#00260000005E0000
(1775153458.669214) can0 0A0#3754C40E00210200
(1775153458.669458) can0 0A1#7F8E00001E000000
(1775153458.669700) can0 260#001A1A3000000000
(1775153458.669952) can0 2A0#0000600000000000
(1775153458.670185) can0 329#4F7A7C101126000E
(1775153458.670415) can0 545#CA12008CC2FFC9FF
(1775153458.671546) can0 002#00000000000008E2
(1775153458.672140) can0 130#328000FF578108FF
(1775153458.672383) can0 140#000000000229184F
(1775153458.672570) can0 2B0#FF7FFF062C
(1775153458.676601) can0 153#002100FF00FF102F
(1775153458.676848) can0 1F1#0800000000000000
(1775153458.677088) can0 220#260400000A001710
(1775153458.678507) can0 316#051AAB0E1A21007F
(1775153458.678747) can0 260#001A1A3000000000
(1775153458.678982) can0 0A0#3754AB0E00210200
(1775153458.679225) can0 0A1#7F8E00001E000000
(1775153458.679471) can0 18F#00260000005E0000
(1775153458.679722) can0 2A0#0000600000000000
(1775153458.679955) can0 329#847A7C101126000E
(1775153458.680187) can0 545#CA12008BC9FFC7FF
(1775153458.681771) can0 002#00000000000009FF
(1775153458.681958) can0 2B0#FF7FFF063D
(1775153458.682352) can0 130#2E8000FF4C810978
(1775153458.682595) can0 140#0000000004251920
(1775153458.682956) can0 4F0#0000000000000000
(1775153458.686821) can0 153#002100FF00FF203F
(1775153458.687065) can0 220#290400000A001810
(1775153458.688408) can0 316#051AAB0E1A21007F
(1775153458.688642) can0 0A0#3754AB0E00210200
(1775153458.688885) can0 0A1#7F8E00001E000000
(1775153458.689131) can0 18F#00260000005E0000
(1775153458.689372) can0 260#001A1A3000000000
(1775153458.689624) can0 2A0#0000600000000000
(1775153458.689856) can0 329#847A7C101126000E
(1775153458.690086) can0 545#CA12008CC9FFCAFF
(1775153458.691405) can0 2B0#FF7FFF060E
(1775153458.691961) can0 002#0000000000000AD8
(1775153458.692544) can0 130#308000FF3C810AAF
(1775153458.692785) can0 140#0000000006261AD0
(1775153458.697012) can0 153#002100FF00FF304F
(1775153458.697256) can0 220#290400000A001810
(1775153458.697503) can0 1F1#0800000000000000
(1775153458.698371) can0 316#051AAB0E1A21007F
(1775153458.698605) can0 0A0#3754AB0E00210200
(1775153458.698849) can0 0A1#7F8E00001E000000
(1775153458.699094) can0 18F#00260000005E0000
(1775153458.699336) can0 260#001A1A3000000000
(1775153458.699588) can0 2A0#0000600000000000
(1775153458.699819) can0 329#847A7C101126000E
(1775153458.700051) can0 545#CA12008BC9FFCAFF
(1775153458.700907) can0 5E4#000000
(1775153458.701095) can0 2B0#FF7FFF061F
(1775153458.702183) can0 002#0000000000000BC5
(1775153458.702871) can0 130#2D8000FF49810B2C
(1775153458.703113) can0 140#0000000008291B67
(1775153458.704444) can0 4F0#0000000000000000
(1775153458.707235) can0 153#002100FF00FF405F
(1775153458.707475) can0 220#260400000A001710
(1775153458.709069) can0 316#051AAB0E1A21007F
(1775153458.709305) can0 0A0#37549E0E00210200
(1775153458.709548) can0 0A1#7F8E00001E000000
(1775153458.709794) can0 18F#00260000005E0000
(1775153458.710035) can0 260#001A1A3000000000
(1775153458.710287) can0 2A0#0000600000000000
(1775153458.710518) can0 329#847A7C101126000E
(1775153458.710706) can0 2B0#FF7FFF06E0
(1775153458.710936) can0 545#CA12008CC9FFCAFF
(1775153458.712376) can0 002#0000000000000C96
(1775153458.712959) can0 130#338000FF4D810CC1
(1775153458.713197) can0 140#000000000A201C21
(1775153458.717427) can0 153#002100FF00FF506F
(1775153458.717666) can0 220#260400000A001710
(1775153458.717914) can0 1F1#0800000000000000
(1775153458.718341) can0 316#051B9E0E1A21007F
(1775153458.718577) can0 0A0#37549E0E00210200
(1775153458.718821) can0 0A1#7F8E00001E000000
(1775153458.719066) can0 18F#00260000005E0000
(1775153458.719308) can0 260#001A1A3000000000
(1775153458.719559) can0 2A0#0000600000000000
(1775153458.719791) can0 329#847A7C101126000E
(1775153458.720023) can0 545#CA12008CCFFFCBFF
(1775153458.720209) can0 2B0#FF7FFF06F1
(1775153458.722595) can0 002#0000000000010DC7
(1775153458.723186) can0 130#318000FF3C810DA1
(1775153458.723427) can0 140#0000000002241D1D
(1775153458.723677) can0 4F0#0000000000000000
(1775153458.727654) can0 153#002100FF00FF607F
(1775153458.727897) can0 220#280400000A001810
(1775153458.728308) can0 316#051B9E0E1A21007F
(1775153458.728544) can0 0A0#37549E0E00210200
(1775153458.728788) can0 0A1#7F8E00001E000000
(1775153458.729033) can0 18F#00260000005E0000
(1775153458.729275) can0 260#001A1A3000000000
(1775153458.729526) can0 2A0#0000600000000000
(1775153458.729712) can0 2B0#FF7FFF06C2
(1775153458.729944) can0 329#847A7C101126000E
(1775153458.730175) can0 545#CA12008BCFFFCBFF
(1775153458.732789) can0 002#0000000000010EE0
(1775153458.733369) can0 130#328000FF32810E68
(1775153458.733617) can0 140#0000000004041E4A
(1775153458.737844) can0 153#002100FF00FF708F
(1775153458.738087) can0 220#280400000A001810
(1775153458.738335) can0 1F1#0800000000000000
(1775153458.738570) can0 0A0#37549E0E00210200
(1775153458.738814) can0 0A1#7F8E00001E000000
(1775153458.739059) can0 18F#00260000005E0000
(1775153458.739301) can0 260#001A1A3000000000
(1775153458.739553) can0 2A0#0000600000000000
(1775153458.739742) can0 2B0#FF7FFF06D3
(1775153458.739973) can0 316#051B9E0E1A21007F
(1775153458.740204) can0 329#847A7C101126000E
(1775153458.740435) can0 545#CA12008CCFFFCBFF
(1775153458.743017) can0 002#0000000000010FFD
(1775153458.743267) can0 4F0#0000000000000000
(1775153458.743763) can0 130#2E8000FF46810F39
(1775153458.744005) can0 140#0000000006251F6D
(1775153458.748071) can0 153#002100FF00FF809F
(1775153458.748313) can0 220#240400000A001810
(1775153458.748550) can0 0A0#3754A90E00210200
(1775153458.748794) can0 0A1#7F8E00001E000000
(1775153458.749039) can0 18F#00260000005E0000
(1775153458.749281) can0 260#001A1A3000000000
(1775153458.749532) can0 2A0#0000600000000000
(1775153458.749719) can0 2B0#FF7FFF06A4
(1775153458.749948) can0 316#051BA90E1A21007F
(1775153458.750180) can0 329#D37A7C101126000E
(1775153458.750411) can0 545#CA12008CCDFFCAFF
(1775153458.753209) can0 002#0000000000010046
(1775153458.753794) can0 130#338000FF45810051
(1775153458.754036) can0 140#00000000082810E4
(1775153458.758175) can0 2B0#FF7FFF06B5
(1775153458.758412) can0 0A0#3754A90E00210200
(1775153458.758656) can0 0A1#7F8E00001E000000
(1775153458.758892) can0 153#002100FF00FF90AF
(1775153458.759137) can0 18F#00260000005E0000
(1775153458.759385) can0 1F1#0800000000000000
(1775153458.759628) can0 220#240400000A001810
(1775153458.759870) can0 260#001A1A3000000000
(1775153458.760121) can0 2A0#0000600000000000
(1775153458.760351) can0 316#051BA90E1A21007F
(1775153458.760583) can0 329#D37A7C101126000E
(1775153458.760812) can0 545#CA12008BCDFFCAFF
(1775153458.763121) can0 4F0#0000000000000000
(1775153458.763432) can0 002#000000000001015B
(1775153458.764019) can0 130#338000FF3D810108
(1775153458.764263) can0 140#000000000A2811FA
(1775153458.767716) can0 2B0#FF7FFF0686
(1775153458.768279) can0 316#051BA90E1A21007F
(1775153458.768516) can0 153#002100FF00FFA0BF
(1775153458.768753) can0 0A0#3754A90E00210200
(1775153458.768997) can0 0A1#7F8E00001E000000
(1775153458.769243) can0 18F#00260000005E0000
(1775153458.769488) can0 220#270400000A001810
(1775153458.769730) can0 260#001A1A3000000000
(1775153458.769981) can0 2A0#0000600000000000
(1775153458.770213) can0 329#D37A7C101126000E
(1775153458.770445) can0 545#CA12008CCDFFCAFF
(1775153458.773629) can0 002#000000000001027C
(1775153458.774222) can0 130#338000FF4381026E
(1775153458.774459) can0 140#000000000C2F1221
(1775153458.777257) can0 2B0#FF7FFF0697
(1775153458.778180) can0 316#051AAD0E1A21007F
(1775153458.778426) can0 18F#00260000005E0000
(1775153458.778661) can0 0A0#3754AD0E00210200
(1775153458.778905) can0 0A1#7F8E00001E000000
(1775153458.779140) can0 153#002100FF00FFB0CF
(1775153458.779386) can0 220#270400000A001810
(1775153458.779634) can0 1F1#0800000000000000
(1775153458.779875) can0 260#001A1A3000000000
(1775153458.780128) can0 2A0#0000600000000000
(1775153458.780360) can0 329#D37A7C101126000E
(1775153458.780590) can0 545#CA12008CC9FFCAFF
(1775153458.783055) can0 4F0#0000000000000000
(1775153458.783850) can0 002#0000000000010361
(1775153458.784666) can0 130#398000FF42810394
(1775153458.784907) can0 140#000000000E2413B1
(1775153458.786800) can0 2B0#FF7FFF0668
(1775153458.788187) can0 316#051AAD0E1A21007F
(1775153458.788432) can0 18F#00260000005E0000
(1775153458.788667) can0 0A0#3754AD0E00210200
(1775153458.788911) can0 0A1#7F8E00001E000000
(1775153458.789151) can0 153#002100FF00FFC0DF
(1775153458.789396) can0 220#270400000A001810
(1775153458.789638) can0 260#001A1A3000000000
(1775153458.789889) can0 2A0#0000600000000000
(1775153458.790121) can0 329#D37A7C101126000E
(1775153458.790351) can0 545#CA12008CC9FFCAFF
(1775153458.794040) can0 002#0000000000010432
(1775153458.794642) can0 130#378000FF4E8104CC
(1775153458.794885) can0 140#00000000102014DE
(1775153458.796342) can0 2B0#FF7FFF0679
(1775153458.798185) can0 316#051AAD0E1A21007F
(1775153458.798421) can0 0A0#3754AD0E00210200
(1775153458.798664) can0 0A1#7F8E00001E000000
(1775153458.798910) can0 18F#00260000005E0000
(1775153458.799146) can0 153#002100FF00FFD0EF
(1775153458.799391) can0 220#270400000A001810
(1775153458.799639) can0 1F1#0800000000000000
(1775153458.799880) can0 260#001A1A3000000000
(1775153458.800132) can0 2A0#0000600000000000
(1775153458.800364) can0 329#D37A7C101126000E
(1775153458.800593) can0 545#CA12008CC9FFCAFF
(1775153458.801092) can0 5E4#000000
(1775153458.804245) can0 4F0#0000000000000000
(1775153458.804492) can0 002#000000000001052F
(1775153458.805075) can0 130#328000FF4A8105E3
(1775153458.805312) can0 140#000000001221158C
(1775153458.805884) can0 2B0#FF7FFF064A
(1775153458.808135) can0 316#051AB80E1A21007F
(1775153458.808380) can0 18F#00260000005E0000
(1775153458.808620) can0 0A0#3754B80E00210200
(1775153458.808863) can0 0A1#7F8E00001E000000
(1775153458.809105) can0 260#001A1A3000000000
(1775153458.809346) can0 153#002100FF00FFE0FF
(1775153458.809586) can0 220#280400000A001A10
(1775153458.809838) can0 2A0#0000600000000000
(1775153458.810069) can0 329#D37A7C101126000E
(1775153458.810301) can0 545#CA12008CC7FFC9FF
(1775153458.814458) can0 002#0000000000010608
(1775153458.815044) can0 130#308000FF3E810630
(1775153458.815284) can0 140#00000000142016E2
(1775153458.815469) can0 2B0#FF7FFF065B
(1775153458.818155) can0 316#051AB80E1A21007F
(1775153458.818397) can0 260#001A1A3000000000
(1775153458.818635) can0 0A0#3754B80E00210200
(1775153458.818879) can0 0A1#7F8E00001E000000
(1775153458.819124) can0 18F#00260000005E0000
(1775153458.819376) can0 2A0#0000600000000000
(1775153458.819619) can0 153#002100FF00FF001F
(1775153458.819857) can0 220#280400000A001A10
(1775153458.820106) can0 1F1#0800000000000000
(1775153458.820337) can0 329#D37A7C101126000E
(1775153458.820569) can0 545#CA12008CC7FFC9FF
(1775153458.822890) can0 4F0#0000000000000000
(1775153458.824676) can0 002#0000000000010715
(1775153458.824967) can0 2B0#FF7FFF062C
(1775153458.825260) can0 130#2D8000FF3B8107FB
(1775153458.825502) can0 140#00000000162017FC
(1775153458.828296) can0 316#051AB80E1A21007F
(1775153458.828531) can0 329#0E7A7C101126000E
(1775153458.828771) can0 0A0#3754B80E00210200
(1775153458.829014) can0 0A1#7F8E00001E000000
(1775153458.829260) can0 18F#00260000005E0000
(1775153458.829501) can0 260#001A1A3000000000
(1775153458.829741) can0 153#002100FF00FF102F
(1775153458.829980) can0 220#260400000A001710
(1775153458.830232) can0 2A0#0000600000000000
(1775153458.830462) can0 545#CA12008BC7FFC9FF
(1775153458.834509) can0 2B0#FF7FFF063D
(1775153458.834865) can0 002#00000000000108AE
(1775153458.835578) can0 130#308000FF4F810851
(1775153458.835827) can0 140#000000001800183B
(1775153458.838080) can0 316#0519C40E1A21007F
(1775153458.838321) can0 0A0#3754C40E00210200
(1775153458.838563) can0 0A1#7F8E00001E000000
(1775153458.838809) can0 18F#00260000005E0000
(1775153458.839051) can0 260#001A1A3000000000
(1775153458.839303) can0 2A0#0000600000000000
(1775153458.839538) can0 329#0E7A7C101126000E
(1775153458.839768) can0 545#CA12008CC2FFCCFF
(1775153458.840007) can0 153#002100FF00FF203F
(1775153458.840254) can0 1F1#0800000000000000
(1775153458.840494) can0 220#260400000A001710
(1775153458.842820) can0 4F0#0000000000000000
(1775153458.844048) can0 2B0#FF7FFF060E
(1775153458.845089) can0 002#00000000000109B3
(1775153458.845678) can0 130#2D8000FF49810916
(1775153458.845920) can0 140#0000000002241969
(1775153458.848065) can0 316#0519C40E1A21007F
(1775153458.848310) can0 18F#00260000005E0000
(1775153458.848552) can0 0A0#3754C40E00210200
(1775153458.848796) can0 0A1#7F8E00001E000000
(1775153458.849037) can0 260#001A1A3000000000
(1775153458.849289) can0 2A0#0000600000000000
(1775153458.849525) can0 329#0E7A7C101126000E
(1775153458.849754) can0 545#CA12008CC2FFC9FF
(1775153458.850143) can0 153#002100FF00FF304F
(1775153458.850385) can0 220#280400000A001710
(1775153458.853590) can0 2B0#FF7FFF061F
(1775153458.855280) can0 002#0000000000010A94
(1775153458.855862) can0 130#2E8000FF32810A1E
(1775153458.856110) can0 140#0000000004041A3E
(1775153458.858142) can0 316#0519C40E1A21007F
(1775153458.858384) can0 0A0#3754C40E00210200
(1775153458.858627) can0 0A1#7F8E00001E000000
(1775153458.858873) can0 18F#00260000005E0000
(1775153458.859115) can0 260#001A1A3000000000
(1775153458.859366) can0 2A0#0000600000000000
(1775153458.859602) can0 329#0E7A7C101126000E
(1775153458.859835) can0 545#CA12008BC2FFC9FF
(1775153458.860339) can0 153#002100FF00FF405F
(1775153458.860587) can0 220#280400000A001710
(1775153458.860840) can0 1F1#0800000000000000
(1775153458.862747) can0 4F0#0000000000000000
(1775153458.863225) can0 2B0#FF7FFF06E0
(1775153458.865506) can0 002#0000000000010B89
(1775153458.866086) can0 130#318000FF35810B6C
(1775153458.866330) can0 140#0000000006251B19
(1775153458.868759) can0 316#0519C70E1A21007F
(1775153458.869010) can0 2A0#0000600000000000
(1775153458.869245) can0 0A0#3754C70E00210200
(1775153458.869489) can0 0A1#7F8E00001E000000
(1775153458.869735) can0 18F#00260000005E0000
(1775153458.869976) can0 260#001A1A3000000000
(1775153458.870212) can0 329#0E7A7C101126000E
(1775153458.870444) can0 545#CA12008CC0FFC9FF
(1775153458.870679) can0 153#002100FF00FF506F
(1775153458.870919) can0 220#240400000A001610
(1775153458.872688) can0 2B0#FF7FFF06F1
(1775153458.875698) can0 002#0000000000010CDA
(1775153458.876458) can0 130#338000FF43810CC8
(1775153458.876699) can0 140#0000000008281C78
(1775153458.877970) can0 316#0519C70E1A21007F
(1775153458.878206) can0 0A0#3754C70E00210200
(1775153458.878449) can0 0A1#7F8E00001E000000
(1775153458.878695) can0 18F#00260000005E0000
(1775153458.878937) can0 260#001A1A3000000000
(1775153458.879188) can0 2A0#0000600000000000
(1775153458.879424) can0 329#0E7A7C101126000E
(1775153458.879656) can0 545#CA12008CC0FFC9FF
(1775153458.880755) can0 153#002100FF00FF607F
(1775153458.880995) can0 220#240400000A001610
(1775153458.881242) can0 1F1#0800000000000000
(1775153458.882230) can0 2B0#FF7FFF06C2
(1775153458.882623) can0 4F0#0000000000000000
(1775153458.885920) can0 002#0000000000010DC7
(1775153458.886503) can0 130#338000FF43810DD5
(1775153458.886743) can0 140#000000000A281D66
(1775153458.887924) can0 316#0519C70E1A21007F
(1775153458.888160) can0 0A0#3754C70E00210200
(1775153458.888403) can0 0A1#7F8E00001E000000
(1775153458.888649) can0 18F#00260000005E0000
(1775153458.888891) can0 260#001A1A3000000000
(1775153458.889142) can0 2A0#0000600000000000
(1775153458.889378) can0 329#0E7A7C101126000E
(1775153458.889613) can0 545#CA12008BC0FFC9FF
(1775153458.890976) can0 153#002100FF00FF708F
(1775153458.891222) can0 220#270400000A001810
(1775153458.891777) can0 2B0#FF7FFF06D3
(1775153458.896115) can0 002#0000000000010EE0
(1775153458.896707) can0 130#318000FF43810E48
(1775153458.896944) can0 140#000000000C2F1EBD
(1775153458.897969) can0 316#0519C70E1A21007F
(1775153458.898212) can0 260#001A1A3000000000
(1775153458.898446) can0 0A0#3754C70E00210200
(1775153458.898691) can0 0A1#7F8E00001E000000
(1775153458.898936) can0 18F#00260000005E0000
(1775153458.899187) can0 2A0#0000600000000000
(1775153458.899421) can0 329#4F7A7C101126000E
(1775153458.899652) can0 545#CA12008CC0FFC9FF
(1775153458.901171) can0 153#002100FF00FF809F
(1775153458.901416) can0 220#270400000A001810
(1775153458.901663) can0 1F1#0800000000000000
(1775153458.901849) can0 2B0#FF7FFF06A4
(1775153458.902003) can0 5E4#000000
(1775153458.903839) can0 4F0#0000000000000000
(1775153458.906341) can0 002#0000000000010FFD
(1775153458.906923) can0 130#308000FF41810F0B
(1775153458.907167) can0 140#000000000E241F2D
(1775153458.907870) can0 316#051ABB0E1A21007F
(1775153458.908115) can0 18F#00260000005E0000
(1775153458.908353) can0 0A0#3754BB0E00210200
(1775153458.908596) can0 0A1#7F8E00001E000000
(1775153458.908838) can0 260#001A1A3000000000
(1775153458.909090) can0 2A0#0000600000000000
(1775153458.909323) can0 329#4F7A7C101126000E
(1775153458.909557) can0 545#CA12008BC6FFC7FF
(1775153458.910930) can0 2B0#FF7FFF06B5
(1775153458.911393) can0 153#002100FF00FF90AF
(1775153458.911635) can0 220#270400000A001710
(1775153458.916533) can0 002#0000000000010046
(1775153458.917347) can0 130#378000FF428100B2
(1775153458.917590) can0 140#00000000102010AA
(1775153458.917869) can0 316#051ABB0E1A21007F
(1775153458.918105) can0 0A0#3754BB0E00210200
(1775153458.918349) can0 0A1#7F8E00001E000000
(1775153458.918594) can0 18F#00260000005E0000
(1775153458.918837) can0 260#001A1A3000000000
(1775153458.919088) can0 2A0#0000600000000000
(1775153458.919321) can0 329#4F7A7C101126000E
(1775153458.919553) can0 545#CA12008BC6FFC9FF
(1775153458.920395) can0 2B0#FF7FFF0686
(1775153458.921588) can0 153#002100FF00FFA0BF
(1775153458.921835) can0 1F1#0800000000000000
(1775153458.922077) can0 220#270400000A001710
(1775153458.922472) can0 4F0#0000000000000000
(1775153458.926757) can0 002#000000000001015B
(1775153458.927341) can0 130#358000FF51810181
(1775153458.927580) can0 140#00000000122111F8
(1775153458.927848) can0 316#051ABB0E1A21007F
(1775153458.928093) can0 18F#00260000005E0000
(1775153458.928331) can0 0A0#3754BB0E00210200
(1775153458.928575) can0 0A1#7C8E00001E000000
(1775153458.928816) can0 260#001A1A3000000000
(1775153458.929068) can0 2A0#0000600000000000
(1775153458.929301) can0 329#4F7A7C101126000E
(1775153458.929533) can0 545#CA12008CC6FFC9FF
(1775153458.929936) can0 2B0#FF7FFF0697
(1775153458.931810) can0 153#002100FF00FFB0CF
(1775153458.932054) can0 220#260400000A001A10
(1775153458.936947) can0 002#00000000000202A8
(1775153458.937543) can0 130#348000FF418102E3
(1775153458.937785) can0 140#000000000220128B
(1775153458.938014) can0 316#051AB30E1A21007F
(1775153458.938248) can0 0A0#3754B30E00210200
(1775153458.938492) can0 0A1#7C8E00001E000000
(1775153458.938738) can0 18F#00260000005E0000
(1775153458.938979) can0 260#001A1A3000000000
(1775153458.939231) can0 2A0#0000600000000000
(1775153458.939464) can0 329#4F7A7C101126000E
(1775153458.939653) can0 2B0#FF7FFF0668
(1775153458.939886) can0 545#CA12008CC9FFCAFF
(1775153458.942006) can0 153#002100FF00FFC0DF
(1775153458.942250) can0 220#260400000A001A10
(1775153458.942498) can0 1F1#0800000000000000
(1775153458.942747) can0 4F0#0000000000000000
(1775153458.947173) can0 002#00000000000203B5
(1775153458.947755) can0 130#338000FF3381033B
(1775153458.947992) can0 0A0#3754B30E00210200
(1775153458.948234) can0 0A1#7C8E00001E000000
(1775153458.948476) can0 140#0000000004201393
(1775153458.948722) can0 18F#00260000005E0000
(1775153458.948963) can0 260#001A1A3000000000
(1775153458.949215) can0 2A0#0000600000000000
(1775153458.949401) can0 2B0#FF7FFF0679
(1775153458.949628) can0 316#051AB30E1A21007F
(1775153458.949862) can0 329#4F7A7C101126000E
(1775153458.950092) can0 545#CA12008CC9FFCAFF
(1775153458.952224) can0 153#002100FF00FFD0EF
(1775153458.952466) can0 220#260400000A001910
(1775153458.957363) can0 002#00000000000204E6
(1775153458.957841) can0 316#051AB30E1A21007F
(1775153458.958081) can0 130#338000FF4981042F
(1775153458.958317) can0 0A0#3754B30E00210200
(1775153458.958560) can0 0A1#7C8E00001E000000
(1775153458.958804) can0 140#00000000062014C3
(1775153458.959049) can0 18F#00260000005E0000
(1775153458.959291) can0 260#001A1A3000000000
(1775153458.959542) can0 2A0#0000600000000000
(1775153458.959730) can0 2B0#FF7FFF064A
(1775153458.959964) can0 329#4F7A7C101126000E
(1775153458.960196) can0 545#CA12008BC9FFCAFF
(1775153458.962420) can0 4F0#0000000000000000
(1775153458.962662) can0 153#002100FF00FFE0FF
(1775153458.962903) can0 220#260400000A001910
(1775153458.963150) can0 1F1#0800000000000000
(1775153458.967590) can0 002#00000000000205FB
(1775153458.967819) can0 316#051AB60E1A21007F
(1775153458.968056) can0 0A0#3754B60E00210200
(1775153458.968299) can0 0A1#7C8E00001E000000
(1775153458.968540) can0 130#318000FF5381059F
(1775153458.968782) can0 140#00000000082015D7
(1775153458.969027) can0 18F#00260000005E0000
(1775153458.969269) can0 260#001A1A3000000000
(1775153458.969520) can0 2A0#0000600000000000
(1775153458.969706) can0 2B0#FF7FFF065B
(1775153458.969938) can0 329#847A7C101126000E
(1775153458.970167) can0 545#CA12008CC9FFC9FF
(1775153458.972650) can0 153#002100FF00FF001F
(1775153458.972895) can0 220#270400000A001810
(1775153458.977616) can0 2B0#FF7FFF062C
(1775153458.977861) can0 002#00000000000206DC
(1775153458.978097) can0 0A0#3754B60E00210200
(1775153458.978340) can0 0A1#7C8E00001E000000
(1775153458.978582) can0 130#2F8000FF388106D0
(1775153458.978823) can0 140#000000000A001686
(1775153458.979069) can0 18F#00260000005E0000
(1775153458.979311) can0 260#001A1A3000000000
(1775153458.979562) can0 2A0#0000600000000000
(1775153458.979792) can0 316#051AB60E1A21007F
(1775153458.980023) can0 329#847A7C101126000E
(1775153458.980253) can0 545#CA12008CC9FFC9FF
(1775153458.982314) can0 4F0#0000000000000000
(1775153458.982840) can0 153#002100FF00FF102F
(1775153458.983086) can0 220#270400000A001810
(1775153458.983334) can0 1F1#0800000000000000
(1775153458.987170) can0 2B0#FF7FFF063D
(1775153458.987849) can0 316#051AB60E1A21007F
(1775153458.988096) can0 002#000000000003078D
(1775153458.988332) can0 0A0#3754B60E00210200
(1775153458.988575) can0 0A1#7C8E00001E000000
(1775153458.988817) can0 130#2D8000FF4881073F
(1775153458.989060) can0 140#0000000002091781
(1775153458.989305) can0 18F#00260000005E0000
(1775153458.989547) can0 260#001A1A3000000000
(1775153458.989799) can0 2A0#0000600000000000
(1775153458.990031) can0 329#847A7C101126000E
(1775153458.990262) can0 545#CA12008BC9FFC9FF
(1775153458.993064) can0 153#002100FF00FF203F
(1775153458.993307) can0 220#250400000A001610
(1775153458.996713) can0 2B0#FF7FFF060E
(1775153458.997688) can0 316#0519C30E1A21007F
(1775153458.997922) can0 0A0#3754C30E00210200
(1775153458.998166) can0 0A1#7C8E00001E000000
(1775153458.998411) can0 002#0000000000030836
(1775153458.998657) can0 18F#00260000005E0000
(1775153458.998898) can0 260#001A1A3000000000
(1775153458.999150) can0 2A0#0000600000000000
(1775153458.999387) can0 130#308000FF4F810851
(1775153458.999633) can0 140#00000000040D1812
(1775153458.999864) can0 329#847A7C101126000E
(1775153459.000092) can0 545#CA12008CC2FFC9FF
(1775153459.001457) can0 5E4#000000
(1775153459.003255) can0 4F0#0000000000000000
(1775153459.003490) can0 153#002100FF00FF304F
(1775153459.003737) can0 1F1#0800000000000000
(1775153459.003982) can0 220#250400000A001610
(1775153459.006254) can0 2B0#FF7FFF061F
(1775153459.007637) can0 316#0519C30E1A21007F
(1775153459.007883) can0 18F#00260000005E0000
(1775153459.008118) can0 0A0#3754C30E00210200
(1775153459.008360) can0 0A1#7C8E00001E000000
(1775153459.008605) can0 002#000000000003092B
(1775153459.008847) can0 260#001A1A3000000000
(1775153459.009099) can0 2A0#0000600000000000
(1775153459.009334) can0 130#338000FF4C810927
(1775153459.009576) can0 140#00000000061519E2
(1775153459.009808) can0 329#847A7C101126000E
(1775153459.010037) can0 545#CA12008CC2FFC9FF
(1775153459.013484) can0 153#002100FF00FF405F
(1775153459.013725) can0 220#280400000A001710
(1775153459.015795) can0 2B0#FF7FFF06E0
(1775153459.017851) can0 316#0519C30E1A21007F
(1775153459.018097) can0 18F#00260000005E0000
(1775153459.018330) can0 0A0#3754C30E00210200
(1775153459.018574) can0 0A1#7C8E00001E000000
(1775153459.018819) can0 002#0000000000030A0C
(1775153459.019061) can0 260#001A1A3000000000
(1775153459.019312) can0 2A0#0000600000000000
(1775153459.019550) can0 130#368000FF41810AB1
(1775153459.019792) can0 140#0000000008291A7A
(1775153459.020023) can0 329#847A7C101126000E
(1775153459.020257) can0 545#CA12008BC2FFC9FF
(1775153459.022001) can0 4F0#0000000000000000
(1775153459.023677) can0 153#002100FF00FF506F
(1775153459.023920) can0 220#280400000A001710
(1775153459.024167) can0 1F1#0800000000000000
(1775153459.025337) can0 2B0#FF7FFF06F1
(1775153459.028351) can0 316#051AA40E1A21007F
(1775153459.028596) can0 18F#00260000005E0000
(1775153459.028833) can0 0A0#3754A40E00210200
(1775153459.029079) can0 002#0000000000030B11
(1775153459.029322) can0 0A1#7C8E00001E000000
(1775153459.029564) can0 260#001A1A3000000000
(1775153459.029802) can0 130#308000FF35810B31
(1775153459.030041) can0 140#000000000A391BD0
(1775153459.030293) can0 2A0#0000600000000000
(1775153459.030525) can0 329#847A7C101126000E
(1775153459.030754) can0 545#CA12008CCCFFC8FF
(1775153459.033906) can0 153#002100FF00FF607F
(1775153459.034149) can0 220#260400000A001A10
(1775153459.034880) can0 2B0#FF7FFF06C2
(1775153459.037649) can0 316#051AA40E1A21007F
(1775153459.037891) can0 260#001A1A3000000000
(1775153459.038129) can0 0A0#3754A40E00210200
(1775153459.038371) can0 0A1#7C8E00001E000000
(1775153459.038618) can0 18F#00260000005E0000
(1775153459.038868) can0 2A0#0000600000000000
(1775153459.039113) can0 002#0000000000030C42
(1775153459.039343) can0 329#D37A7C101126000E
(1775153459.039575) can0 545#CA12008CCCFFCAFF
(1775153459.039812) can0 130#2E8000FF32810C50
(1775153459.040054) can0 140#000000000C211C68
(1775153459.041921) can0 4F0#0000000000000000
(1775153459.044097) can0 153#002100FF00FF708F
(1775153459.044340) can0 220#260400000A001A10
(1775153459.044587) can0 1F1#0800000000000000
(1775153459.044777) can0 2B0#FF7FFF06D3
(1775153459.047627) can0 316#051AA40E1A21007F
(1775153459.047869) can0 260#001A1A3000000000
(1775153459.048106) can0 0A0#3754A40E00210200
(1775153459.048350) can0 0A1#7C8E00001E000000
(1775153459.048596) can0 18F#00260000005E0000
(1775153459.048847) can0 2A0#0000600000000000
(1775153459.049079) can0 329#D37A7C101126000E
(1775153459.049324) can0 002#0000000000030D5F
(1775153459.049556) can0 545#CA12008BCCFFCAFF
(1775153459.050059) can0 130#3E8000FF4A810DB0
(1775153459.050297) can0 140#000000000E391D98
(1775153459.053964) can0 2B0#FF7FFF06A4
(1775153459.054323) can0 153#002100FF00FF809F
(1775153459.054563) can0 220#240400000A001610
(1775153459.057558) can0 316#051AA40E1A21007F
(1775153459.057796) can0 0A0#3754A40E00210200
(1775153459.058039) can0 0A1#7C8E00001E000000
(1775153459.058285) can0 18F#00260000005E0000
(1775153459.058527) can0 260#001A1A3000000000
(1775153459.058778) can0 2A0#0000600000000000
(1775153459.059010) can0 329#D37A7C101126000E
(1775153459.059242) can0 545#CA12008BCCFFCAFF
(1775153459.059485) can0 002#0000000000030E78
(1775153459.060070) can0 130#398000FF51810E81
(1775153459.060313) can0 140#0000000010201E0C
(1775153459.061966) can0 4F0#0000000000000000
(1775153459.063507) can0 2B0#FF7FFF06B5
(1775153459.064513) can0 153#002100FF00FF90AF
(1775153459.064752) can0 220#240400000A001610
(1775153459.065000) can0 1F1#0800000000000000
(1775153459.067551) can0 316#051C920E1A21007F
(1775153459.067796) can0 18F#00260000005E0000
(1775153459.068036) can0 0A0#3754920E00210200
(1775153459.068280) can0 0A1#7C8E00001E000000
(1775153459.068521) can0 260#001A1A3000000000
(1775153459.068773) can0 2A0#0000600000000000
(1775153459.069005) can0 329#D37A7C101126000E
(1775153459.069238) can0 545#CA12008CD4FFCBFF
(1775153459.069679) can0 002#0000000000030F65
(1775153459.070268) can0 130#388000FF38810F12
(1775153459.070512) can0 140#0000000012001F67
(1775153459.073049) can0 2B0#FF7FFF0686
(1775153459.074739) can0 153#002100FF00FFA0BF
(1775153459.074984) can0 220#280400000A001B10
(1775153459.077544) can0 316#051C920E1A21007F
(1775153459.077789) can0 18F#00260000005E0000
(1775153459.078029) can0 0A0#3754920E00210200
(1775153459.078273) can0 0A1#7C8E00001E000000
(1775153459.078514) can0 260#001A1A3000000000
(1775153459.078766) can0 2A0#0000600000000000
(1775153459.078997) can0 329#D37A7C101126000E
(1775153459.079231) can0 545#CA12008BD4FFCBFF
(1775153459.079876) can0 002#00000000000300DE
(1775153459.080474) can0 130#338000FF3F810016
(1775153459.080716) can0 140#00000000020910D2
(1775153459.081910) can0 4F0#0000000000000000
(1775153459.082592) can0 2B0#FF7FFF0697
(1775153459.084931) can0 153#002100FF00FFB0CF
(1775153459.085178) can0 1F1#0800000000000000
(1775153459.085421) can0 220#280400000A001B10
(1775153459.087464) can0 316#051C920E1A21007F
(1775153459.087709) can0 18F#00260000005E0000
(1775153459.087949) can0 0A0#3754920E00210200
(1775153459.088193) can0 0A1#7C8E00001E000000
(1775153459.088434) can0 260#001A1A3000000000
(1775153459.088686) can0 2A0#0000600000000000
(1775153459.088918) can0 329#D37A7C101126000E
(1775153459.089151) can0 545#CA12008BD4FFCBFF
(1775153459.090101) can0 002#00000000000301C3
(1775153459.090946) can0 130#308000FF518101B5
(1775153459.091187) can0 140#00000000040D11E7
(1775153459.092156) can0 2B0#FF7FFF0668
(1775153459.095161) can0 153#002100FF00FFC0DF
(1775153459.095402) can0 220#260400000A001810
(1775153459.097438) can0 316#051C900E1A21007F
(1775153459.097683) can0 18F#00260000005E0000
(1775153459.097923) can0 0A0#3754900E00210200
(1775153459.098167) can0 0A1#7C8E00001E000000
(1775153459.098408) can0 260#001A1A3000000000
(1775153459.098660) can0 2A0#0000600000000000
(1775153459.098892) can0 329#D37A7C101126000E
(1775153459.099123) can0 545#CA12008CD7FFCBFF
(1775153459.100297) can0 002#00000000000302E4
(1775153459.100916) can0 130#408000FF47810287
(1775153459.101155) can0 140#000000000615122D
(1775153459.101659) can0 5E4#000000
(1775153459.101845) can0 2B0#FF7FFF0679
(1775153459.102952) can0 4F0#0000000000000000
(1775153459.105350) can0 153#002100FF00FFD0EF
(1775153459.105592) can0 220#260400000A001810
(1775153459.105839) can0 1F1#0800000000000000
(1775153459.107454) can0 316#051C900E1A21007F
(1775153459.107700) can0 18F#00260000005E0000
(1775153459.107941) can0 0A0#3754900E00210200
(1775153459.108183) can0 0A1#7C8E00001E000000
(1775153459.108425) can0 260#001A1A3000000000
(1775153459.108677) can0 2A0#0000600000000000
(1775153459.108908) can0 329#D37A7C101126000E
(1775153459.109140) can0 545#CA12008CD7FFCBFF
(1775153459.110521) can0 002#00000000000303F9
(1775153459.111102) can0 130#438000FF368103BA
(1775153459.111344) can0 140#000000000829138F
(1775153459.111531) can0 2B0#FF7FFF064A
(1775153459.115581) can0 153#002100FF00FFE0FF
(1775153459.115822) can0 220#270400000A001F10
(1775153459.117433) can0 316#051C900E1A21007F
(1775153459.117678) can0 18F#00260000005E0000
(1775153459.117918) can0 0A0#3754900E00210200
(1775153459.118162) can0 0A1#7C8E00001E000000
(1775153459.118403) can0 260#001A1A3000000000
(1775153459.118655) can0 2A0#0000600000000000
(1775153459.118890) can0 329#0E7A7C101126000E
(1775153459.119122) can0 545#CA12008BD7FFCBFF
(1775153459.120712) can0 002#00000000000304AA
(1775153459.120898) can0 2B0#FF7FFF065B
(1775153459.121324) can0 130#368000FF40810498
(1775153459.121561) can0 140#000000000A39146B
(1775153459.121812) can0 4F0#0000000000000000
(1775153459.125776) can0 153#002100FF00FF001F
(1775153459.126017) can0 220#270400000A001F10
(1775153459.126265) can0 1F1#0800000000000000
(1775153459.127371) can0 316#051BA30E1A21007F
(1775153459.127616) can0 18F#00260000005E0000
(1775153459.127852) can0 0A0#3754A30E00210200
(1775153459.128096) can0 0A1#7C8E00001E000000
(1775153459.128337) can0 260#001A1A3000000000
(1775153459.128589) can0 2A0#0000600000000000
(1775153459.128824) can0 329#0E7A7C101126000E
(1775153459.129056) can0 545#CA12008CCEFFCAFF
(1775153459.130402) can0 2B0#FF7FFF062C
(1775153459.130941) can0 002#000000000004054E
(1775153459.131540) can0 130#348000FF478105B5
(1775153459.131781) can0 140#00000000022015D8
(1775153459.136001) can0 153#002100FF00FF102F
(1775153459.136243) can0 220#260400000A001A10
(1775153459.137435) can0 316#051BA30E1A21007F
(1775153459.137676) can0 260#001A1A3000000000
(1775153459.137912) can0 0A0#3754A30E00210200
(1775153459.138155) can0 0A1#7C8E00001E000000
(1775153459.138401) can0 18F#00260000005E0000
(1775153459.138653) can0 2A0#0000600000000000
(1775153459.138888) can0 329#0E7A7C101126000E
(1775153459.139120) can0 545#CA12008CCEFFCAFF
(1775153459.139869) can0 2B0#FF7FFF063D
(1775153459.141135) can0 002#0000000000040669
(1775153459.141693) can0 4F0#0000000000000000
(1775153459.141930) can0 130#328000FF4D81064E
(1775153459.142173) can0 140#00000000042016FA
(1775153459.146193) can0 153#002100FF00FF203F
(1775153459.146437) can0 220#260400000A001A10
(1775153459.146684) can0 1F1#0800000000000000
(1775153459.147553) can0 316#051BA30E1A21007F
(1775153459.147794) can0 260#001A1A3000000000
(1775153459.148030) can0 0A0#3754A30E00210200
(1775153459.148273) can0 0A1#7C8E00001E000000
(1775153459.148520) can0 18F#00260000005E0000
(1775153459.148771) can0 2A0#0000600000000000
(1775153459.149007) can0 329#0E7A7C101126000E
(1775153459.149238) can0 545#CA12008CCEFFCAFF
(1775153459.149426) can0 2B0#FF7FFF060E
(1775153459.151362) can0 002#0000000000040774
(1775153459.151951) can0 130#348000FF4F810783
(1775153459.152194) can0 140#00000000062017E4
(1775153459.156417) can0 153#002100FF00FF304F
(1775153459.156660) can0 220#280400000A001810
(1775153459.157330) can0 316#051AB50E1A21007F
(1775153459.157576) can0 18F#00260000005E0000
(1775153459.157809) can0 0A0#3754B50E00210200
(1775153459.158053) can0 0A1#7C8E00001E000000
(1775153459.158294) can0 260#001A1A3000000000
(1775153459.158547) can0 2A0#0000600000000000
(1775153459.158782) can0 329#0E7A7C101126000E
(1775153459.158971) can0 2B0#FF7FFF061F
(1775153459.159199) can0 545#CA12008CC9FFC9FF
(1775153459.161557) can0 002#00000000000408CF
(1775153459.161806) can0 4F0#0000000000000000
(1775153459.162142) can0 130#378000FF4D8108DC
(1775153459.162383) can0 140#0000000008201856
(1775153459.166613) can0 153#002100FF00FF405F
(1775153459.166860) can0 1F1#0800000000000000
(1775153459.167103) can0 220#280400000A001810
(1775153459.167333) can0 316#051AB50E1A21007F
(1775153459.167566) can0 0A0#3754B50E00210200
(1775153459.167810) can0 0A1#7C8E00001E000000
(1775153459.168055) can0 18F#00260000005E0000
(1775153459.168297) can0 260#001A1A3000000000
(1775153459.168548) can0 2A0#0000600000000000
(1775153459.168736) can0 2B0#FF7FFF06E0
(1775153459.168973) can0 329#0E7A7C101126000E
(1775153459.169203) can0 545#CA12008BC9FFC9FF
(1775153459.171782) can0 002#00000000000409D2
(1775153459.172368) can0 130#298000FF4981097F
(1775153459.172611) can0 140#000000000A00193D
(1775153459.176834) can0 153#002100FF00FF506F
(1775153459.177073) can0 220#280400000A001A10
(1775153459.177488) can0 316#051AB50E1A21007F
(1775153459.177734) can0 18F#00260000005E0000
(1775153459.177967) can0 0A0#3754B50E00210200
(1775153459.178211) can0 0A1#7C8E00001E000000
(1775153459.178452) can0 260#001A1A3000000000
(1775153459.178704) can0 2A0#0000600000000000
(1775153459.178890) can0 2B0#FF7FFF06F1
(1775153459.179126) can0 329#0E7A7C101126000E
(1775153459.179355) can0 545#CA12008CC9FFC9FF
(1775153459.181734) can0 4F0#0000000000000000
(1775153459.181979) can0 002#0000000000050AB9
(1775153459.182745) can0 130#2B8000FF4E810A68
(1775153459.182990) can0 140#0000000002251A02
(1775153459.187033) can0 153#002100FF00FF607F
(1775153459.187268) can0 220#280400000A001A10
(1775153459.187516) can0 1F1#0800000000000000
(1775153459.187702) can0 2B0#FF7FFF06C2
(1775153459.187997) can0 316#051AB60E1A21007F
(1775153459.188233) can0 0A0#3754B60E00210200
(1775153459.188475) can0 0A1#7C8E00001E000000
(1775153459.188722) can0 18F#00260000005E0000
(1775153459.188963) can0 260#001A1A3000000000
(1775153459.189215) can0 2A0#0000600000000000
(1775153459.189448) can0 329#4F7A7C101126000E
(1775153459.189680) can0 545#CA12008CC6FFC9FF
(1775153459.192194) can0 002#0000000000050BA4
(1775153459.192778) can0 130#2D8000FF3F810B61
(1775153459.193021) can0 140#0000000004061BBB
(1775153459.197109) can0 2B0#FF7FFF06D3
(1775153459.197344) can0 0A0#3754B60E00210200
(1775153459.197587) can0 0A1#7C8E00001E000000
(1775153459.197823) can0 153#002100FF00FF708F
(1775153459.198069) can0 18F#00260000005E0000
(1775153459.198314) can0 220#280400000A001410
(1775153459.198555) can0 260#001A1A3000000000
(1775153459.198807) can0 2A0#0000600000000000
(1775153459.199037) can0 316#051AB60E1A21007F
(1775153459.199271) can0 329#4F7A7C101126000E
(1775153459.199502) can0 545#CA12008CC6FFC9FF
(1775153459.201858) can0 5E4#000000
(1775153459.202388) can0 002#0000000000050CF7
(1775153459.202824) can0 4F0#0000000000000000
(1775153459.203063) can0 130#318000FF35810C3F
(1775153459.203309) can0 140#0000000006201C2B
(1775153459.206649) can0 2B0#FF7FFF06A4
(1775153459.207219) can0 316#051AB60E1A21007F
(1775153459.207457) can0 153#002100FF00FF809F
(1775153459.207693) can0 0A0#3754B60E00210200
(1775153459.207938) can0 0A1#7C8E00001E000000
(1775153459.208182) can0 18F#00260000005E0000
(1775153459.208426) can0 220#280400000A001410
(1775153459.208675) can0 1F1#0800000000000000
(1775153459.208915) can0 260#001A1A3000000000
(1775153459.209167) can0 2A0#0000600000000000
(1775153459.209401) can0 329#4F7A7C101126000E
(1775153459.209634) can0 545#CA12008CC6FFC9FF
(1775153459.212610) can0 002#0000000000050DEA
(1775153459.213236) can0 130#308000FF3A810DF9
(1775153459.213482) can0 140#0000000008001D4A
(1775153459.216189) can0 2B0#FF7FFF06B5
(1775153459.217234) can0 316#051AB60E1A21007F
(1775153459.217476) can0 260#001A1A3000000000
(1775153459.217711) can0 0A0#3754B60E00210200
(1775153459.217955) can0 0A1#7C8E00001E000000
(1775153459.218191) can0 153#002100FF00FF90AF
(1775153459.218436) can0 18F#00260000005E0000
(1775153459.218678) can0 220#250400000A001710
(1775153459.218930) can0 2A0#0000600000000000
(1775153459.219163) can0 329#4F7A7C101126000E
(1775153459.219395) can0 545#CA12008BC6FFC9FF
(1775153459.221716) can0 4F0#0000000000000000
(1775153459.222801) can0 002#0000000000050ECD
(1775153459.223652) can0 130#308000FF46810E9C
(1775153459.223894) can0 140#0000000002251E76
(1775153459.225731) can0 2B0#FF7FFF0686
(1775153459.227169) can0 316#051AB60E1A21007F
(1775153459.227414) can0 18F#00260000005E0000
(1775153459.227648) can0 0A0#3754B60E00210200
(1775153459.227894) can0 0A1#7B8E00001E000000
(1775153459.228131) can0 153#002100FF00FFA0BF
(1775153459.228373) can0 220#250400000A001710
(1775153459.228620) can0 1F1#0800000000000000
(1775153459.228862) can0 260#001A1A3000000000
(1775153459.229113) can0 2A0#0000600000000000
(1775153459.229347) can0 329#4F7A7C101126000E
(1775153459.229579) can0 545#CA18008CC6FFC9FF
(1775153459.233035) can0 002#0000000000060F04
(1775153459.233638) can0 130#328000FF43810FB2
(1775153459.233881) can0 140#0000000002211F46
(1775153459.235276) can0 2B0#FF7FFF0697
(1775153459.237175) can0 316#051AB60E1A21007F
(1775153459.237411) can0 0A0#3754B60E00210200
(1775153459.237654) can0 0A1#7B8E00001E000000
(1775153459.237900) can0 18F#00260000005E0000
(1775153459.238135) can0 153#002100FF00FFB0CF
(1775153459.238377) can0 220#270400000A001710
(1775153459.238618) can0 260#001A1A3000000000
(1775153459.238870) can0 2A0#0000600000000000
(1775153459.239104) can0 329#4F7A7C101126000E
(1775153459.239339) can0 545#CA18008BC6FFC9FF
(1775153459.241652) can0 4F0#0000000000000000
(1775153459.243228) can0 002#00000000000600BF
(1775153459.243811) can0 130#318000FF42810061
(1775153459.244054) can0 140#00000000042110F8
(1775153459.244818) can0 2B0#FF7FFF0668
(1775153459.247149) can0 316#051AB60E1A21007F
(1775153459.247386) can0 0A0#3754B60E00210200
(1775153459.247630) can0 0A1#7B8E00001E000000
(1775153459.247874) can0 18F#00260000005E0000
(1775153459.248118) can0 260#001A1A3000000000
(1775153459.248357) can0 153#002100FF00FFC0DF
(1775153459.248605) can0 1F1#0800000000000000
(1775153459.248846) can0 220#270400000A001710
(1775153459.249098) can0 2A0#0000600000000000
(1775153459.249333) can0 329#4F7A7C101126000E
(1775153459.249567) can0 545#CA18008CC6FFC9FF
(1775153459.253453) can0 002#00000000000601A2
(1775153459.254051) can0 130#2B8000FF4981012D
(1775153459.254290) can0 140#0000000006321186
(1775153459.254476) can0 2B0#FF7FFF0679
(1775153459.257106) can0 316#051AAC0E1A21007F
(1775153459.257351) can0 18F#00260000005E0000
(1775153459.257591) can0 0A0#3754AC0E00210200
(1775153459.257834) can0 0A1#7B8E00001E000000
(1775153459.258076) can0 260#001A1A3000000000
(1775153459.258328) can0 2A0#0000600000000000
(1775153459.258563) can0 153#002100FF00FFD0EF
(1775153459.258803) can0 220#260400000A001710
(1775153459.259035) can0 329#847A7C101126000E
(1775153459.259266) can0 545#CA18008CC8FFCAFF
(1775153459.261693) can0 4F0#0000000000000000
(1775153459.263644) can0 002#0000000000060285
(1775153459.263906) can0 2B0#FF7FFF064A
(1775153459.264227) can0 130#278000FF458102BB
(1775153459.264471) can0 140#0000000008201284
(1775153459.267113) can0 316#051AAC0E1A21007F
(1775153459.267358) can0 18F#00260000005E0000
(1775153459.267598) can0 0A0#3754AC0E00210200
(1775153459.267842) can0 0A1#7B8E00001E000000
(1775153459.268084) can0 260#001A1A3000000000
(1775153459.268335) can0 2A0#0000600000000000
(1775153459.268567) can0 329#847A7C101126000E
(1775153459.268808) can0 153#002100FF00FFE0FF
(1775153459.269049) can0 220#260400000A001710
(1775153459.269296) can0 1F1#0800000000000000
(1775153459.269529) can0 545#CA18008BC8FFCAFF
(1775153459.273446) can0 2B0#FF7FFF065B
(1775153459.273876) can0 002#0000000000060398
(1775153459.274525) can0 130#2F8000FF3B810335
(1775153459.274763) can0 140#000000000A271363
(1775153459.277043) can0 316#051AAC0E1A21007F
(1775153459.277288) can0 18F#00260000005E0000
(1775153459.277527) can0 0A0#3754AC0E00210200
(1775153459.277771) can0 0A1#7B8E00001E000000
(1775153459.278013) can0 260#001A1A3000000000
(1775153459.278264) can0 2A0#0000600000000000
(1775153459.278496) can0 329#847A7C101126000E
(1775153459.278728) can0 545#CA18008CC8FFCAFF
(1775153459.278969) can0 153#002100FF00FF001F
(1775153459.279211) can0 220#270400000A001210
(1775153459.281620) can0 4F0#0000000000000000
(1775153459.282989) can0 2B0#FF7FFF062C
(1775153459.284064) can0 002#00000000000604CB
(1775153459.284665) can0 130#318000FF2F8104C0
(1775153459.284906) can0 140#000000000C3214E0
(1775153459.287034) can0 316#051BA10E1A21007F
(1775153459.287270) can0 0A0#3754A10E00210200
(1775153459.287513) can0 0A1#7B8E00001E000000
(1775153459.287759) can0 18F#00260000005E0000
(1775153459.288002) can0 260#001A1A3000000000
(1775153459.288253) can0 2A0#0000600000000000
(1775153459.288485) can0 329#847A7C101126000E
(1775153459.288718) can0 545#CA18008CCEFFCBFF
(1775153459.289125) can0 153#002100FF00FF102F
(1775153459.289367) can0 220#270400000A001210
(1775153459.289615) can0 1F1#0800000000000000
(1775153459.292532) can0 2B0#FF7FFF063D
(1775153459.294292) can0 002#00000000000605D6
(1775153459.294876) can0 130#268000FF2F8105EA
(1775153459.295116) can0 140#000000000E22154A
(1775153459.297058) can0 316#051BA10E1A21007F
(1775153459.297297) can0 260#001A1A3000000000
(1775153459.297533) can0 0A0#3754A10E00210200
(1775153459.297777) can0 0A1#7B8E00001E000000
(1775153459.298022) can0 18F#00260000005E0000
(1775153459.298274) can0 2A0#0000600000000000
(1775153459.298506) can0 329#847A7C101126000E
(1775153459.298740) can0 545#CA18008CCEFFCBFF
(1775153459.299348) can0 153#002100FF00FF203F
(1775153459.299590) can0 220#240400000A001710
(1775153459.302050) can0 5E4#000000
(1775153459.302237) can0 2B0#FF7FFF060E
(1775153459.302486) can0 4F0#0000000000000000
(1775153459.304483) can0 002#00000000000606F1
(1775153459.305066) can0 130#218000FF3C8106D7
(1775153459.305312) can0 140#00000000102016E4
(1775153459.307125) can0 316#051BA10E1A21007F
(1775153459.307372) can0 18F#00260000005E0000
(1775153459.307606) can0 0A0#3754A10E00210200
(1775153459.307851) can0 0A1#7B8E00001E000000
(1775153459.308093) can0 260#001A1A3000000000
(1775153459.308345) can0 2A0#0000600000000000
(1775153459.308576) can0 329#847A7C101126000E
(1775153459.308810) can0 545#CA18008CCEFFCBFF
(1775153459.309540) can0 153#002100FF00FF304F
(1775153459.309782) can0 220#240400000A001710
(1775153459.310030) can0 1F1#0800000000000000
(1775153459.311712) can0 2B0#FF7FFF061F
(1775153459.314712) can0 002#00000000000607EC
(1775153459.315446) can0 130#1F8000FF54810741
(1775153459.315690) can0 140#000000001200178F
(1775153459.316968) can0 316#051AAD0E1A21007F
(1775153459.317213) can0 18F#00260000005E0000
(1775153459.317448) can0 0A0#3754AD0E00210200
(1775153459.317692) can0 0A1#7B8E00001E000000
(1775153459.317933) can0 260#001A1A3000000000
(1775153459.318185) can0 2A0#0000600000000000
(1775153459.318417) can0 329#847A7C101126000E
(1775153459.318650) can0 545#CA18008CCCFFCAFF
(1775153459.319766) can0 153#002100FF00FF405F
(1775153459.320008) can0 220#260400000A000F10
(1775153459.321178) can0 2B0#FF7FFF06E0
(1775153459.321575) can0 4F0#0000000000000000
(1775153459.324903) can0 002#000000000007081B
(1775153459.325506) can0 130#318000FF43810806
(1775153459.325747) can0 140#0000000002201859
(1775153459.326920) can0 316#051AAD0E1A21007F
(1775153459.327156) can0 0A0#3754AD0E00210200
(1775153459.327399) can0 0A1#7B8E00001E000000
(1775153459.327646) can0 18F#00260000005E0000
(1775153459.327887) can0 260#001A1A3000000000
(1775153459.328139) can0 2A0#0000600000000000
(1775153459.328371) can0 329#D37A7C101126000E
(1775153459.328603) can0 545#CA12008CCCFFCAFF
(1775153459.329958) can0 153#002100FF00FF506F
(1775153459.330205) can0 1F1#0800000000000000
(1775153459.330447) can0 220#260400000A000F10
(1775153459.330718) can0 2B0#FF7FFF06F1
(1775153459.335127) can0 002#0000000000070906
(1775153459.335708) can0 130#318000FF49810914
(1775153459.335951) can0 140#0000000004201941
(1775153459.337154) can0 316#051AAD0E1A21007F
(1775153459.337400) can0 18F#00260000005E0000
(1775153459.337636) can0 0A0#3754AD0E00210200
(1775153459.337879) can0 0A1#7B8E00001E000000
(1775153459.338121) can0 260#001A1A3000000000
(1775153459.338373) can0 2A0#0000600000000000
(1775153459.338604) can0 329#D37A7C101126000E
(1775153459.338836) can0 545#CA12008CCCFFCAFF
(1775153459.340183) can0 153#002100FF00FF607F
(1775153459.340425) can0 220#270400000A001710
(1775153459.340610) can0 2B0#FF7FFF06C2
(1775153459.341471) can0 4F0#0000000000000000
(1775153459.345317) can0 002#0000000000070A21
(1775153459.345900) can0 130#338000FF57810A98
(1775153459.346144) can0 140#0000000006201A65
(1775153459.347480) can0 316#051AB70E1A21007F
(1775153459.347727) can0 18F#00260000005E0000
(1775153459.347963) can0 0A0#3754B70E00210200
(1775153459.348207) can0 0A1#7B8E00001E000000
(1775153459.348448) can0 260#001A1A3000000000
(1775153459.348700) can0 2A0#0000600000000000
(1775153459.348931) can0 329#D37A7C101126000E
(1775153459.349161) can0 545#CA12008CC9FFC9FF
(1775153459.349884) can0 2B0#FF7FFF06D3
(1775153459.350377) can0 153#002100FF00FF708F
(1775153459.350618) can0 220#270400000A001710
(1775153459.350866) can0 1F1#0800000000000000
(1775153459.355544) can0 002#0000000000070B3C
(1775153459.356336) can0 130#338000FF46810B12
(1775153459.356580) can0 140#0000000008201B71
(1775153459.356879) can0 316#051AB70E1A21007F
(1775153459.357125) can0 18F#00260000005E0000
(1775153459.357360) can0 0A0#3754B70E00210200
(1775153459.357604) can0 0A1#7B8E00001E000000
(1775153459.357846) can0 260#001A1A3000000000
(1775153459.358097) can0 2A0#0000600000000000
(1775153459.358329) can0 329#D37A7C101126000E
(1775153459.358559) can0 545#CA12008CC9FFC9FF
(1775153459.359423) can0 2B0#FF7FFF06A4
(1775153459.360602) can0 153#002100FF00FF809F
(1775153459.360846) can0 220#290400000A001810
(1775153459.361356) can0 4F0#0000000000000000
(1775153459.365738) can0 002#0000000000070C6F
(1775153459.366336) can0 130#268000FF3E810C88
(1775153459.366578) can0 140#000000000A001C54
(1775153459.366894) can0 316#051AB70E1A21007F
(1775153459.367139) can0 18F#00260000005E0000
(1775153459.367375) can0 0A0#3754B70E00210200
(1775153459.367619) can0 0A1#7B8E00001E000000
(1775153459.367860) can0 260#001A1A3000000000
(1775153459.368112) can0 2A0#0000600000000000
(1775153459.368343) can0 329#D37A7C101126000E
(1775153459.368573) can0 545#CA12008CC9FFC9FF
(1775153459.368889) can0 2B0#FF7FFF06B5
(1775153459.370797) can0 153#002100FF00FF90AF
(1775153459.371040) can0 220#290400000A001810
(1775153459.371288) can0 1F1#0800000000000000
(1775153459.375968) can0 002#0000000000080DD1
(1775153459.376570) can0 130#1F8000FF49810D0E
(1775153459.376816) can0 140#0000000002081D1F
(1775153459.377608) can0 316#051ACD0E1A21007F
(1775153459.377844) can0 0A0#3754CD0E00210200
(1775153459.378088) can0 0A1#7B8E00001E000000
(1775153459.378333) can0 18F#00260000005E0000
(1775153459.378575) can0 260#001A1A3000000000
(1775153459.378826) can0 2A0#0000600000000000
(1775153459.379012) can0 2B0#FF7FFF0686
(1775153459.379244) can0 329#D37A7C101126000E
(1775153459.379473) can0 545#CA12008CC9FFC9FF
(1775153459.381024) can0 153#002100FF00FFA0BF
(1775153459.381265) can0 220#260400000A001210
(1775153459.381515) can0 4F0#0000000000000000
(1775153459.386163) can0 002#0000000000080EF6
(1775153459.386749) can0 130#288000FF46810EF7
(1775153459.386985) can0 0A0#3754CD0E00210200
(1775153459.387229) can0 0A1#7B8E00001E000000
(1775153459.387470) can0 140#0000000004191EC5
(1775153459.387716) can0 18F#00260000005E0000
(1775153459.387958) can0 260#001A1A3000000000
(1775153459.388209) can0 2A0#0000600000000000
(1775153459.388395) can0 2B0#FF7FFF0697
(1775153459.388625) can0 316#0519CD0E1A21007F
(1775153459.388856) can0 329#D37A7C101126000E
(1775153459.389090) can0 545#CA12008CBFFFCBFF
(1775153459.391219) can0 153#002100FF00FFB0CF
(1775153459.391461) can0 220#260400000A001210
(1775153459.391708) can0 1F1#0800000000000000
(1775153459.396391) can0 002#0000000000080FEB
(1775153459.396813) can0 316#0519CD0E1A21007F
(1775153459.397059) can0 18F#00260000005E0000
(1775153459.397295) can0 0A0#3754CD0E00210200
(1775153459.397538) can0 0A1#7B8E00001E000000
(1775153459.397776) can0 130#328000FF44810F38
(1775153459.398017) can0 140#0000000006151FAC
(1775153459.398259) can0 260#001A1A3000000000
(1775153459.398510) can0 2A0#0000600000000000
(1775153459.398698) can0 2B0#FF7FFF0668
(1775153459.398930) can0 329#D37A7C101126000E
(1775153459.399164) can0 545#CA12008BBFFFC9FF
(1775153459.401449) can0 153#002100FF00FFC0DF
(1775153459.401688) can0 220#270400000A001310
(1775153459.402171) can0 4F0#0000000000000000
(1775153459.402325) can0 5E4#000000
(1775153459.406588) can0 002#0000000000080050
(1775153459.406823) can0 0A0#3754CD0E00210200
(1775153459.407067) can0 0A1#7B8E00001E000000
(1775153459.407305) can0 130#318000FF5081007A
(1775153459.407546) can0 140#00000000080E1024
(1775153459.407792) can0 18F#00260000005E0000
(1775153459.408034) can0 260#001A1A3000000000
(1775153459.408285) can0 2A0#0000600000000000
(1775153459.408471) can0 2B0#FF7FFF0679
(1775153459.408701) can0 316#0519CD0E1A21007F
(1775153459.408936) can0 329#0E7A7C101126000E
(1775153459.409170) can0 545#CA12008CBFFFC9FF
(1775153459.411639) can0 153#002100FF00FFD0EF
(1775153459.411886) can0 1F1#0800000000000000
(1775153459.412125) can0 220#270400000A001310
(1775153459.416586) can0 2B0#FF7FFF064A
(1775153459.416838) can0 002#000000000008014D
(1775153459.417077) can0 0A0#3754CC0E00210200
(1775153459.417320) can0 0A1#7B8E00001E000000
(1775153459.417562) can0 130#2D8000FF4281017E
(1775153459.417808) can0 140#000000000A0411F8
(1775153459.418053) can0 18F#00260000005E0000
(1775153459.418295) can0 260#001A1A3000000000
(1775153459.418547) can0 2A0#0000600000000000
(1775153459.418778) can0 316#0519CC0E1A21007F
(1775153459.419014) can0 329#0E7A7C101126000E
(1775153459.419248) can0 545#CA12008CBFFFC9FF
(1775153459.421275) can0 4F0#0000000000000000
(1775153459.421869) can0 153#002100FF00FFE0FF
(1775153459.422111) can0 220#280400000A001710
(1775153459.426129) can0 2B0#FF7FFF065B
(1775153459.426740) can0 316#0519CC0E1A21007F
(1775153459.426986) can0 18F#00260000005E0000
(1775153459.427231) can0 002#000000000008026A
(1775153459.427471) can0 0A0#3754CC0E00210200
(1775153459.427715) can0 0A1#7B8E00001E000000
(1775153459.427954) can0 130#358000FF40810231
(1775153459.428196) can0 140#000000000C0112BB
(1775153459.428437) can0 260#001A1A3000000000
(1775153459.428689) can0 2A0#0000600000000000
(1775153459.428925) can0 329#0E7A7C101126000E
(1775153459.429158) can0 545#CA11008CBFFFC9FF
(1775153459.432063) can0 153#002100FF00FF001F
(1775153459.432305) can0 220#280400000A001710
(1775153459.432553) can0 1F1#0800000000000000
(1775153459.435673) can0 2B0#FF7FFF062C
(1775153459.436680) can0 316#0519CC0E1A21007F
(1775153459.436925) can0 18F#00260000005E0000
(1775153459.437164) can0 0A0#3754CC0E00210200
(1775153459.437410) can0 002#0000000000080377
(1775153459.437654) can0 0A1#7B8E00001E000000
(1775153459.437895) can0 260#001A1A3000000000
(1775153459.438147) can0 2A0#0000600000000000
(1775153459.438387) can0 130#368000FF4E8103C2
(1775153459.438634) can0 140#000000000E0913FF
(1775153459.438870) can0 329#0E7A7C101126000E
(1775153459.439103) can0 545#CA11008CBFFFC9FF
(1775153459.441219) can0 4F0#0000000000000000
(1775153459.442286) can0 153#002100FF00FF102F
(1775153459.442528) can0 220#260400000A001910
(1775153459.445217) can0 2B0#FF7FFF063D
(1775153459.446730) can0 316#051ABA0E1A21007F
(1775153459.446971) can0 260#001A1A3000000000
(1775153459.447211) can0 0A0#3754BA0E00210200
(1775153459.447458) can0 002#0000000000080424
(1775153459.447702) can0 0A1#7B8E00001E000000
(1775153459.447948) can0 18F#00260000005E0000
(1775153459.448185) can0 130#368000FF48810494
(1775153459.448429) can0 140#00000000103314BE
(1775153459.448680) can0 2A0#0000600000000000
(1775153459.448916) can0 329#0E7A7C101126000E
(1775153459.449150) can0 545#CA11008CC6FFC7FF
(1775153459.452481) can0 153#002100FF00FF203F
(1775153459.452722) can0 220#260400000A001910
(1775153459.452969) can0 1F1#0800000000000000
(1775153459.454758) can0 2B0#FF7FFF060E
(1775153459.456710) can0 316#051ABA0E1A21007F
(1775153459.456951) can0 260#001A1A3000000000
(1775153459.457190) can0 0A0#3754BA0E00210200
(1775153459.457435) can0 0A1#7B8E00001E000000
(1775153459.457682) can0 002#0000000000080539
(1775153459.457927) can0 18F#00260000005E0000
(1775153459.458179) can0 2A0#0000600000000000
(1775153459.458418) can0 130#368000FF4181050A
(1775153459.458659) can0 140#00000000120D158E
(1775153459.458893) can0 329#0E7A7C101126000E
(1775153459.459126) can0 545#CA11008BC6FFC9FF
(1775153459.461092) can0 4F0#0000000000000000
(1775153459.462704) can0 153#002100FF00FF304F
(1775153459.462944) can0 220#270400000A001A10
(1775153459.464300) can0 2B0#FF7FFF061F
(1775153459.466698) can0 316#051ABA0E1A21007F
(1775153459.466940) can0 260#001A1A3000000000
(1775153459.467180) can0 0A0#3754BA0E00210200
(1775153459.467423) can0 0A1#7B8E00001E000000
(1775153459.467669) can0 18F#00260000005E0000
(1775153459.467916) can0 002#000000000008061E
(1775153459.468167) can0 2A0#0000600000000000
(1775153459.468402) can0 329#0E7A7C101126000E
(1775153459.468639) can0 130#328000FF5A8106DC
(1775153459.468881) can0 140#00000000140F1634
(1775153459.469110) can0 545#CA11008CC6FFC9FF
(1775153459.472903) can0 153#002100FF00FF405F
(1775153459.473142) can0 220#270400000A001A10
(1775153459.473389) can0 1F1#0800000000000000
(1775153459.473843) can0 2B0#FF7FFF06E0
(1775153459.476615) can0 316#051AA90E1A21007F
(1775153459.476852) can0 0A0#3754A90E00210200
(1775153459.477096) can0 0A1#7B8E00001E000000
(1775153459.477341) can0 18F#00260000005E0000
(1775153459.477583) can0 260#001A1A3000000000
(1775153459.477835) can0 2A0#0000600000000000
(1775153459.478082) can0 002#0000000000080703
(1775153459.478316) can0 329#4F7A7C101126000E
(1775153459.478546) can0 545#CA11008CCCFFCAFF
(1775153459.478783) can0 130#2E8000FF6181076B
(1775153459.479023) can0 140#0000000016021711
(1775153459.481166) can0 4F0#0000000000000000
(1775153459.483124) can0 153#002100FF00FF506F
(1775153459.483368) can0 220#290400000A001810
(1775153459.483553) can0 2B0#FF7FFF06F1
(1775153459.486563) can0 316#051AA90E1A21007F
(1775153459.486799) can0 0A0#3754A90E00210200
(1775153459.487042) can0 0A1#7B8E00001E000000
(1775153459.487287) can0 18F#00260000005E0000
(1775153459.487529) can0 260#001A1A3000000000
(1775153459.487781) can0 2A0#0000600000000000
(1775153459.488015) can0 329#4F7A7C101126000E
(1775153459.488244) can0 545#CA11008CCCFFCAFF
(1775153459.488492) can0 002#00000000000808B8
(1775153459.489076) can0 130#2F8000FF458108BB
(1775153459.489318) can0 140#000000001809182D
(1775153459.492927) can0 2B0#FF7FFF06C2
(1775153459.493325) can0 153#002100FF00FF607F
(1775153459.493572) can0 1F1#0800000000000000
(1775153459.493817) can0 220#290400000A001810
(1775153459.496800) can0 316#051AA90E1A21007F
(1775153459.497045) can0 18F#00260000005E0000
(1775153459.497282) can0 0A0#3754A90E00210200
(1775153459.497526) can0 0A1#7B8E00001E000000
(1775153459.497768) can0 260#001A1A3000000000
(1775153459.498019) can0 2A0#0000600000000000
(1775153459.498253) can0 329#4F7A7C101126000E
(1775153459.498502) can0 002#00000000000809A5
(1775153459.498730) can0 545#CA11008BCCFFCAFF
(1775153459.499083) can0 130#318000FF4381091B
(1775153459.499321) can0 140#000000001A131945
(1775153459.501977) can0 4F0#0000000000000000
(1775153459.502434) can0 5E4#000000
(1775153459.502624) can0 2B0#FF7FFF06D3
(1775153459.503549) can0 153#002100FF00FF708F
(1775153459.503788) can0 220#270400000A001610
(1775153459.506553) can0 316#051BA60E1A21007F
(1775153459.506797) can0 18F#00260000005E0000
(1775153459.507035) can0 0A0#3754A60E00210200
(1775153459.507279) can0 0A1#7B8E00001E000000
(1775153459.507520) can0 260#001A1A3000000000
(1775153459.507772) can0 2A0#0000600000000000
(1775153459.508006) can0 329#4F7A7C101126000E
(1775153459.508237) can0 545#CA11008BCEFFCAFF
(1775153459.508688) can0 002#0000000000080A82
(1775153459.509315) can0 130#308000FF47810A67
(1775153459.509559) can0 140#000000001C001A07
(1775153459.512011) can0 2B0#FF7FFF06A4
(1775153459.513744) can0 153#002100FF00FF809F
(1775153459.513983) can0 220#270400000A001610
(1775153459.514231) can0 1F1#0800000000000000
(1775153459.516499) can0 316#051BA60E1A21007F
(1775153459.516744) can0 18F#00260000005E0000
(1775153459.516982) can0 0A0#3754A60E00210200
(1775153459.517225) can0 0A1#7B8E00001E000000
(1775153459.517467) can0 260#001A1A3000000000
(1775153459.517719) can0 2A0#0000600000000000
(1775153459.517953) can0 329#4F7A7C101126000E
(1775153459.518182) can0 545#CA11008CCEFFCAFF
(1775153459.518915) can0 002#0000000000080B9F
(1775153459.519520) can0 130#2F8000FF3D810BD8
(1775153459.519763) can0 140#0000000002081B51
(1775153459.520791) can0 4F0#0000000000000000
(1775153459.521553) can0 2B0#FF7FFF06B5
(1775153459.523968) can0 153#002100FF00FF90AF
(1775153459.524210) can0 220#270400000A001710
(1775153459.526597) can0 316#051BA60E1A21007F
(1775153459.526842) can0 18F#00260000005E0000
(1775153459.527080) can0 0A0#3754A60E00210200
(1775153459.527323) can0 0A1#7A8E00001E000000
(1775153459.527565) can0 260#001A1A3000000000
(1775153459.527817) can0 2A0#0000600000000000
(1775153459.528050) can0 329#4F7A7C101126000E
(1775153459.528282) can0 545#CA11008BCEFFCAFF
(1775153459.529107) can0 002#0000000000080CCC
(1775153459.529941) can0 130#328000FF36810C54
(1775153459.530184) can0 140#0000000004191CFF
(1775153459.531113) can0 2B0#FF7FFF0686
(1775153459.534164) can0 153#002100FF00FFA0BF
(1775153459.534406) can0 220#270400000A001710
(1775153459.534653) can0 1F1#0800000000000000
(1775153459.537267) can0 316#051C980E1A21007F
(1775153459.537503) can0 0A0#3754980E00210200
(1775153459.537747) can0 0A1#7A8E00001E000000
(1775153459.537993) can0 18F#00260000005E0000
(1775153459.538234) can0 260#001A1A3000000000
(1775153459.538486) can0 2A0#0000600000000000
(1775153459.538720) can0 329#4F7A7C101126000E
(1775153459.538951) can0 545#CA11008CD4FFCAFF
(1775153459.539337) can0 002#0000000000080DD1
(1775153459.539918) can0 130#3A8000FF42810DD5
(1775153459.540157) can0 140#0000000006151D96
(1775153459.540656) can0 2B0#FF7FFF0697
(1775153459.541035) can0 4F0#0000000000000000
(1775153459.544391) can0 153#002100FF00FFB0CF
(1775153459.544632) can0 220#250400000A001810
(1775153459.546482) can0 316#051C980E1A21007F
(1775153459.546728) can0 18F#00260000005E0000
(1775153459.546965) can0 0A0#3754980E00210200
(1775153459.547209) can0 0A1#7A8E00001E000000
(1775153459.547450) can0 260#001A1A3000000000
(1775153459.547702) can0 2A0#0000600000000000
(1775153459.547933) can0 329#847A7C101126000E
(1775153459.548165) can0 545#CA11008CD4FFCBFF
(1775153459.549528) can0 002#0000000000080EF6
(1775153459.550110) can0 130#3B8000FF46810EA9
(1775153459.550353) can0 140#00000000080E1E82
(1775153459.550542) can0 2B0#FF7FFF0668
(1775153459.554589) can0 153#002100FF00FFC0DF
(1775153459.554831) can0 220#250400000A001810
(1775153459.555078) can0 1F1#0800000000000000
(1775153459.556454) can0 316#051C980E1A21007F
(1775153459.556699) can0 18F#00260000005E0000
(1775153459.556936) can0 0A0#3754980E00210200
(1775153459.557180) can0 0A1#7A8E00001E000000
(1775153459.557422) can0 260#001A1A3000000000
(1775153459.557673) can0 2A0#0000600000000000
(1775153459.557905) can0 329#847A7C101126000E
(1775153459.558138) can0 545#CA11008BD4FFCBFF
(1775153459.559755) can0 002#0000000000080FEB
(1775153459.559941) can0 2B0#FF7FFF0679
(1775153459.560341) can0 130#398000FF51810F9C
(1775153459.560586) can0 140#000000000A041F5E
(1775153459.560835) can0 4F0#0000000000000000
(1775153459.564810) can0 153#002100FF00FFD0EF
(1775153459.565052) can0 220#270400000A001C10
(1775153459.566457) can0 316#051C980E1A21007F
(1775153459.566698) can0 260#001A1A3000000000
(1775153459.566935) can0 0A0#3754980E00210200
(1775153459.567180) can0 0A1#7A8E00001E000000
(1775153459.567424) can0 18F#00260000005E0000
(1775153459.567677) can0 2A0#0000600000000000
(1775153459.567908) can0 329#847A7C101126000E
(1775153459.568140) can0 545#CA11008CD4FFCBFF
(1775153459.569288) can0 2B0#FF7FFF064A
(1775153459.569953) can0 002#0000000000080050
(1775153459.570537) can0 130#3B8000FF5181009D
(1775153459.570781) can0 140#000000000C011081
(1775153459.575010) can0 153#002100FF00FFE0FF
(1775153459.575258) can0 1F1#0800000000000000
(1775153459.575499) can0 220#270400000A001C10
(1775153459.576356) can0 316#051BA10E1A21007F
(1775153459.576587) can0 329#847A7C101126000E
(1775153459.576822) can0 0A0#3754A10E00210200
(1775153459.577066) can0 0A1#7A8E00001E000000
(1775153459.577312) can0 18F#00260000005E0000
(1775153459.577553) can0 260#001A1A3000000000
(1775153459.577805) can0 2A0#0000600000000000
(1775153459.578037) can0 545#CA11008CD1FFCBFF
(1775153459.578827) can0 2B0#FF7FFF065B
(1775153459.580181) can0 002#000000000008014D
(1775153459.580841) can0 130#3D8000FF49810147
(1775153459.581083) can0 140#000000000E0911C5
(1775153459.581332) can0 4F0#0000000000000000
(1775153459.585236) can0 153#002100FF00FF001F
(1775153459.585480) can0 220#280400000A001C10
(1775153459.586388) can0 316#051BA10E1A21007F
(1775153459.586633) can0 18F#00260000005E0000
(1775153459.586869) can0 0A0#3754A10E00210200
(1775153459.587113) can0 0A1#7A8E00001E000000
(1775153459.587354) can0 260#001A1A3000000000
(1775153459.587606) can0 2A0#0000600000000000
(1775153459.587837) can0 329#847A7C101126000E
(1775153459.588069) can0 545#CA11008CD1FFCBFF
(1775153459.588448) can0 2B0#FF7FFF062C
(1775153459.590370) can0 002#000000000008026A
(1775153459.590969) can0 130#398000FF50810292
(1775153459.591211) can0 140#00000000103312F0
(1775153459.595432) can0 153#002100FF00FF102F
(1775153459.595675) can0 220#280400000A001C10
(1775153459.595922) can0 1F1#0800000000000000
(1775153459.596381) can0 316#051BA10E1A21007F
(1775153459.596622) can0 260#001A1A3000000000
(1775153459.596859) can0 0A0#3754A10E00210200
(1775153459.597101) can0 0A1#7A8E00001E000000
(1775153459.597348) can0 18F#00260000005E0000
(1775153459.597599) can0 2A0#0000600000000000
(1775153459.597831) can0 329#847A7C101126000E
(1775153459.598018) can0 2B0#FF7FFF063D
(1775153459.598251) can0 545#CA11008CD1FFCBFF
(1775153459.600598) can0 002#0000000000080377
(1775153459.601189) can0 130#398000FF57810305
(1775153459.601432) can0 140#00000000120D13C0
(1775153459.601909) can0 4F0#0000000000000000
(1775153459.602630) can0 5E4#000000
(1775153459.605656) can0 153#002100FF00FF203F
(1775153459.605899) can0 220#280400000A001B10
(1775153459.606320) can0 316#051BA90E1A21007F
(1775153459.606565) can0 18F#00260000005E0000
(1775153459.606803) can0 0A0#3754A90E00210200
(1775153459.607047) can0 0A1#7A8E00001E000000
(1775153459.607289) can0 260#001A1A3000000000
(1775153459.607540) can0 2A0#0000600000000000
(1775153459.607728) can0 2B0#FF7FFF060E
(1775153459.607960) can0 329#847A7C101126000E
(1775153459.608189) can0 545#CA11008CCEFFCAFF
(1775153459.610794) can0 002#0000000000080424
(1775153459.611378) can0 130#378000FF4A8104CA
(1775153459.611624) can0 140#00000000140F140E
(1775153459.615848) can0 153#002100FF00FF304F
(1775153459.616092) can0 220#280400000A001B10
(1775153459.616339) can0 1F1#0800000000000000
(1775153459.616577) can0 0A0#3754A90E00210200
(1775153459.616820) can0 0A1#7A8E00001E000000
(1775153459.617066) can0 18F#00260000005E0000
(1775153459.617308) can0 260#001A1A3000000000
(1775153459.617559) can0 2A0#0000600000000000
(1775153459.617747) can0 2B0#FF7FFF061F
(1775153459.617977) can0 316#051BA90E1A21007F
(1775153459.618208) can0 329#D37A7C101126000E
(1775153459.618438) can0 545#CA11008CCEFFCAFF
(1775153459.620863) can0 4F0#0000000000000000
(1775153459.621110) can0 002#0000000000080539
(1775153459.621736) can0 130#338000FF388105F5
(1775153459.621978) can0 140#000000001602152B
(1775153459.626078) can0 153#002100FF00FF405F
(1775153459.626314) can0 0A0#3754A90E00210200
(1775153459.626558) can0 0A1#7A8E00001E000000
(1775153459.626804) can0 18F#00260000005E0000
(1775153459.627044) can0 220#270400000A001A10
(1775153459.627285) can0 260#001A1A3000000000
(1775153459.627537) can0 2A0#0000600000000000
(1775153459.627724) can0 2B0#FF7FFF06E0
(1775153459.627954) can0 316#051BA90E1A21007F
(1775153459.628185) can0 329#D37A7C101126000E
(1775153459.628417) can0 545#CA11008BCEFFCAFF
(1775153459.631213) can0 002#0000000000090652
(1775153459.631825) can0 130#3A8000FF43810695
(1775153459.632068) can0 140#0000000002271606
(1775153459.636068) can0 2B0#FF7FFF06F1
(1775153459.636304) can0 0A0#3754AE0E00210200
(1775153459.636548) can0 0A1#7A8E00001E000000
(1775153459.636783) can0 153#002100FF00FF506F
(1775153459.637028) can0 18F#00260000005E0000
(1775153459.637268) can0 220#270400000A001A10
(1775153459.637516) can0 1F1#0800000000000000
(1775153459.637758) can0 260#001A1A3000000000
(1775153459.638009) can0 2A0#0000600000000000
(1775153459.638241) can0 316#051AAE0E1A21007F
(1775153459.638472) can0 329#D37A7C101126000E
(1775153459.638702) can0 545#CA11008CCCFFCAFF
(1775153459.640806) can0 4F0#0000000000000000
(1775153459.641438) can0 002#000000000009074F
(1775153459.642023) can0 130#368000FF4B81073F
(1775153459.642268) can0 140#00000000042017E7
(1775153459.645608) can0 2B0#FF7FFF06C2
(1775153459.646259) can0 316#051AAE0E1A21007F
(1775153459.646496) can0 153#002100FF00FF607F
(1775153459.646734) can0 0A0#3754AE0E00210200
(1775153459.646978) can0 0A1#7A8E00001E000000
(1775153459.647223) can0 18F#00260000005E0000
(1775153459.647465) can0 220#270400000A001C10
(1775153459.647707) can0 260#001A1A3000000000
(1775153459.647958) can0 2A0#0000600000000000
(1775153459.648190) can0 329#D37A7C101126000E
(1775153459.648419) can0 545#CA11008CCCFFCAFF
(1775153459.651628) can0 002#00000000000908F4
(1775153459.652213) can0 130#3C8000FF418108E3
(1775153459.652452) can0 140#00000000062218C7
(1775153459.655152) can0 2B0#FF7FFF06D3
(1775153459.656471) can0 316#051AAE0E1A21007F
(1775153459.656706) can0 153#002100FF00FF708F
(1775153459.656944) can0 0A0#3754AE0E00210200
(1775153459.657188) can0 0A1#7A8E00001E000000
(1775153459.657433) can0 18F#00260000005E0000
(1775153459.657681) can0 1F1#0800000000000000
(1775153459.657922) can0 220#270400000A001C10
(1775153459.658164) can0 260#001A1A3000000000
(1775153459.658416) can0 2A0#0000600000000000
(1775153459.658647) can0 329#D37A7C101126000E
(1775153459.658877) can0 545#CA11008BCCFFCAFF
(1775153459.660691) can0 4F0#0000000000000000
(1775153459.661854) can0 002#00000000000909E9
(1775153459.662641) can0 130#468000FF4181099E
(1775153459.662884) can0 140#0000000008211907
(1775153459.664693) can0 2B0#FF7FFF06A4
(1775153459.666246) can0 316#051B9D0E1A21007F
(1775153459.666487) can0 260#001A1A3000000000
(1775153459.666721) can0 0A0#37549D0E00210200
(1775153459.666965) can0 0A1#7A8E00001E000000
(1775153459.667202) can0 153#002100FF00FF809F
(1775153459.667448) can0 18F#00260000005E0000
(1775153459.667689) can0 220#260400000A001D10
(1775153459.667940) can0 2A0#0000600000000000
(1775153459.668172) can0 329#D37A7C101126000E
(1775153459.668403) can0 545#CA11008CD1FFCBFF
(1775153459.672047) can0 002#0000000000090ACE
(1775153459.672630) can0 130#438000FF40810A02
(1775153459.672871) can0 140#000000000A231ABB
(1775153459.674235) can0 2B0#FF7FFF06B5
(1775153459.676210) can0 316#051B9D0E1A21007F
(1775153459.676461) can0 2A0#0000600000000000
(1775153459.676695) can0 0A0#37549D0E00210200
(1775153459.676938) can0 0A1#7A8E00001E000000
(1775153459.677174) can0 153#002100FF00FF90AF
(1775153459.677420) can0 18F#00260000005E0000
(1775153459.677661) can0 220#260400000A001D10
(1775153459.677909) can0 1F1#0800000000000000
(1775153459.678150) can0 260#001A1A3000000000
(1775153459.678382) can0 329#D37A7C101126000E
(1775153459.678614) can0 545#CA11008CD1FFCBFF
(1775153459.680624) can0 4F0#0000000000000000
(1775153459.682272) can0 002#0000000000090BD3
(1775153459.682853) can0 130#388000FF45810BAB
(1775153459.683090) can0 140#000000000C271B8E
(1775153459.683779) can0 2B0#FF7FFF0686
(1775153459.686202) can0 316#051B9D0E1A21007F
(1775153459.686435) can0 0A0#37549D0E00210200
(1775153459.686679) can0 0A1#7A8E00001E000000
(1775153459.686925) can0 18F#00260000005E0000
(1775153459.687166) can0 260#001A1A3000000000
(1775153459.687404) can0 153#002100FF00FFA0BF
(1775153459.687646) can0 220#260400000A002010
(1775153459.687899) can0 2A0#0000600000000000
(1775153459.688129) can0 329#D37A7C101126000E
(1775153459.688363) can0 545#CA11008BD1FFCBFF
(1775153459.692472) can0 002#0000000000090C80
(1775153459.693050) can0 130#438000FF50810C54
(1775153459.693292) can0 140#000000000E281C7D
(1775153459.693478) can0 2B0#FF7FFF0697
(1775153459.696821) can0 316#051AB00E1A21007F
(1775153459.697058) can0 0A0#3754B00E00210200
(1775153459.697302) can0 0A1#7A8E00001E000000
(1775153459.697537) can0 153#002100FF00FFB0CF
(1775153459.697783) can0 18F#00260000005E0000
(1775153459.698025) can0 220#260400000A002010
(1775153459.698272) can0 1F1#0800000000000000
(1775153459.698514) can0 260#001A1A3000000000
(1775153459.698766) can0 2A0#0000600000000000
(1775153459.699001) can0 329#0E7A7C101126000E
(1775153459.699233) can0 545#CA11008CCBFFCBFF
(1775153459.701797) can0 4F0#0000000000000000
(1775153459.702695) can0 002#0000000000090D9D
(1775153459.702849) can0 5E4#000000
(1775153459.703037) can0 2B0#FF7FFF0668
(1775153459.703548) can0 130#3D8000FF46810D5D
(1775153459.703789) can0 140#0000000010231DFF
(1775153459.706098) can0 316#051AB00E1A21007F
(1775153459.706344) can0 18F#00260000005E0000
(1775153459.706581) can0 0A0#3754B00E00210200
(1775153459.706825) can0 0A1#7A8E00001E000000
(1775153459.707067) can0 260#001A1A3000000000
(1775153459.707318) can0 2A0#0000600000000000
(1775153459.707554) can0 329#0E7A7C101126000E
(1775153459.707794) can0 153#002100FF00FFC0DF
(1775153459.708038) can0 220#280400000A002010
(1775153459.708267) can0 545#CA11008CCCFFCAFF
(1775153459.712405) can0 2B0#FF7FFF0679
(1775153459.712888) can0 002#0000000000090EBA
(1775153459.713521) can0 130#378000FF42810E14
(1775153459.713764) can0 140#00000000120F1ED9
(1775153459.716072) can0 316#051AB00E1A21007F
(1775153459.716317) can0 18F#00260000005E0000
(1775153459.716555) can0 0A0#3754B00E00210200
(1775153459.716799) can0 0A1#7A8E00001E000000
(1775153459.717040) can0 260#001A1A3000000000
(1775153459.717292) can0 2A0#0000600000000000
(1775153459.717528) can0 329#0E7A7C101126000E
(1775153459.717757) can0 545#CA11008BCCFFCAFF
(1775153459.717993) can0 153#002100FF00FFD0EF
(1775153459.718237) can0 220#280400000A002010
(1775153459.718484) can0 1F1#0800000000000000
(1775153459.720760) can0 4F0#0000000000000000
(1775153459.721951) can0 2B0#FF7FFF064A
(1775153459.723117) can0 002#0000000000090FA7
(1775153459.723700) can0 130#368000FF55810FC6
(1775153459.723939) can0 140#0000000014271FEE
(1775153459.726002) can0 316#051AB00E1A21007F
(1775153459.726248) can0 18F#00260000005E0000
(1775153459.726486) can0 0A0#3754B00E00210200
(1775153459.726729) can0 0A1#7A8E00001E000000
(1775153459.726970) can0 260#001A1A3000000000
(1775153459.727223) can0 2A0#0000600000000000
(1775153459.727458) can0 329#0E7A7C101126000E
(1775153459.727688) can0 545#CA11008CCCFFCAFF
(1775153459.728180) can0 153#002100FF00FFE0FF
(1775153459.728422) can0 220#260400000A001A10
(1775153459.731493) can0 2B0#FF7FFF065B
(1775153459.733314) can0 002#000000000009001C
(1775153459.733913) can0 130#398000FF548100AE
(1775153459.734154) can0 140#00000000160010DA
(1775153459.736031) can0 316#051AC10E1A21007F
(1775153459.736275) can0 18F#00260000005E0000
(1775153459.736512) can0 0A0#3754C10E00210200
(1775153459.736756) can0 0A1#7A8E00001E000000
(1775153459.736998) can0 260#001A1A3000000000
(1775153459.737249) can0 2A0#0000600000000000
(1775153459.737485) can0 329#0E7A7C101126000E
(1775153459.737717) can0 545#CA11008CC6FFCCFF
(1775153459.738373) can0 153#002100FF00FF001F
(1775153459.738621) can0 1F1#0800000000000000
(1775153459.738865) can0 220#260400000A001A10
(1775153459.740699) can0 4F0#0000000000000000
(1775153459.741130) can0 2B0#FF7FFF062C
(1775153459.743540) can0 002#0000000000090101
(1775153459.744148) can0 130#318000FF44810179
(1775153459.744389) can0 140#0000000002271155
(1775153459.746055) can0 316#051AC10E1A21007F
(1775153459.746307) can0 2A0#0000600000000000
(1775153459.746545) can0 0A0#3754C10E00210200
(1775153459.746788) can0 0A1#7A8E00001E000000
(1775153459.747034) can0 18F#00260000005E0000
(1775153459.747276) can0 260#001A1A3000000000
(1775153459.747511) can0 329#0E7A7C101126000E
(1775153459.747741) can0 545#CA11008CC6FFC9FF
(1775153459.748598) can0 153#002100FF00FF102F
(1775153459.748839) can0 220#290400000A001B10
(1775153459.750673) can0 2B0#FF7FFF063D
(1775153459.753733) can0 002#0000000000090226
(1775153459.754441) can0 130#2F8000FF408102E0
(1775153459.754683) can0 140#000000000420128E
(1775153459.756004) can0 316#051AC10E1A21007F
(1775153459.756249) can0 18F#00260000005E0000
(1775153459.756486) can0 0A0#3754C10E00210200
(1775153459.756731) can0 0A1#7A8E00001E000000
(1775153459.756971) can0 260#001A1A3000000000
(1775153459.757224) can0 2A0#0000600000000000
(1775153459.757458) can0 329#0E7A7C101126000E
(1775153459.757691) can0 545#CA11008BC6FFC9FF
(1775153459.758789) can0 153#002100FF00FF203F
(1775153459.759032) can0 220#290400000A001B10
(1775153459.759279) can0 1F1#0800000000000000
(1775153459.760141) can0 2B0#FF7FFF060E
(1775153459.760434) can0 4F0#0000000000000000
(1775153459.763965) can0 002#00000000000A03EF
(1775153459.764573) can0 130#338000FF47810375
(1775153459.764815) can0 140#0000000002201396
(1775153459.765986) can0 316#0519C50E1A21007F
(1775153459.766222) can0 0A0#3754C50E00210200
(1775153459.766465) can0 0A1#7A8E00001E000000
(1775153459.766711) can0 18F#00260000005E0000
(1775153459.766953) can0 260#001A1A3000000000
(1775153459.767204) can0 2A0#0000600000000000
(1775153459.767438) can0 329#4F7A7C101126000E
(1775153459.767670) can0 545#CA11008CC2FFC9FF
(1775153459.769015) can0 153#002100FF00FF304F
(1775153459.769255) can0 220#260400000A001610
(1775153459.769680) can0 2B0#FF7FFF061F
(1775153459.774153) can0 002#00000000000A04BC
(1775153459.774740) can0 130#2F8000FF3D810463
(1775153459.774986) can0 140#00000000042014C0
(1775153459.776032) can0 316#0519C50E1A21007F
(1775153459.776268) can0 0A0#3754C50E00210200
(1775153459.776511) can0 0A1#7A8E00001E000000
(1775153459.776757) can0 18F#00260000005E0000
(1775153459.776999) can0 260#001A1A3000000000
(1775153459.777250) can0 2A0#0000600000000000
(1775153459.777484) can0 329#4F7A7C101126000E
(1775153459.777716) can0 545#CA11008CC2FFC9FF
(1775153459.779210) can0 153#002100FF00FF405F
(1775153459.779452) can0 220#260400000A001610
(1775153459.779699) can0 1F1#0800000000000000
(1775153459.779888) can0 2B0#FF7FFF06E0
(1775153459.780336) can0 4F0#0000000000000000
(1775153459.784378) can0 002#00000000000A05A1
(1775153459.784960) can0 130#318000FF3881054F
(1775153459.785202) can0 140#00000000062015DE
(1775153459.785931) can0 316#0519C50E1A21007F
(1775153459.786166) can0 0A0#3754C50E00210200
(1775153459.786410) can0 0A1#7A8E00001E000000
(1775153459.786656) can0 18F#00260000005E0000
(1775153459.786897) can0 260#001A1A3000000000
(1775153459.787149) can0 2A0#0000600000000000
(1775153459.787383) can0 329#4F7A7C101126000E
(1775153459.787612) can0 545#CA11008BC2FFC9FF
(1775153459.788844) can0 2B0#FF7FFF06F1
(1775153459.789433) can0 153#002100FF00FF506F
(1775153459.789675) can0 220#260400000A001610
(1775153459.794572) can0 002#00000000000A0686
(1775153459.795340) can0 130#338000FF42810695
(1775153459.795582) can0 140#00000000082016F0
(1775153459.795873) can0 316#051C8F0E1A21007F
(1775153459.796109) can0 0A0#37548F0E00210200
(1775153459.796353) can0 0A1#7A8E00001E000000
(1775153459.796598) can0 18F#00260000005E0000
(1775153459.796840) can0 260#001A1A3000000000
(1775153459.797092) can0 2A0#0000600000000000
(1775153459.797325) can0 329#4F7A7C101126000E
(1775153459.797557) can0 545#CA11008CD3FFCBFF
(1775153459.798385) can0 2B0#FF7FFF06C2
(1775153459.799629) can0 153#002100FF00FF607F
(1775153459.799870) can0 220#260400000A001610
(1775153459.800117) can0 1F1#0800000000000000
(1775153459.801250) can0 4F0#0000000000000000
(1775153459.803025) can0 5E4#000000
(1775153459.804801) can0 002#00000000000A079B
(1775153459.805405) can0 130#388000FF3E8107FF
(1775153459.805652) can0 140#000000000A00179B
(1775153459.805897) can0 18F#00260000005E0000
(1775153459.806132) can0 0A0#37548F0E00210200
(1775153459.806376) can0 0A1#7A8E00001E000000
(1775153459.806618) can0 260#001A1A3000000000
(1775153459.806869) can0 2A0#0000600000000000
(1775153459.807101) can0 316#051C8F0E1A21007F
(1775153459.807335) can0 329#4F7A7C101126000E
(1775153459.807566) can0 545#CA11008CD3FFC6FF
(1775153459.807856) can0 2B0#FF7FFF06D3
(1775153459.809856) can0 153#002100FF00FF708F
(1775153459.810097) can0 220#260400000A001810
(1775153459.814999) can0 002#00000000000008E2
(1775153459.815589) can0 130#368000FF4781088E
(1775153459.815833) can0 140#000000000229184F
(1775153459.816085) can0 316#051C8F0E1A21007F
(1775153459.816332) can0 18F#00260000005E0000
(1775153459.816567) can0 0A0#37548F0E00210200
(1775153459.816810) can0 0A1#7A8E00001E000000
(1775153459.817053) can0 260#001A1A3000000000
(1775153459.817303) can0 2A0#0000600000000000
(1775153459.817490) can0 2B0#FF7FFF06A4
(1775153459.817722) can0 329#4F7A7C101126000E
(1775153459.817955) can0 545#CA11008BD3FFC6FF
(1775153459.820051) can0 153#002100FF00FF809F
(1775153459.820299) can0 1F1#0800000000000000
(1775153459.820540) can0 220#260400000A001810
(1775153459.820790) can0 4F0#0000000000000000
(1775153459.825221) can0 002#00000000000009FF
(1775153459.825803) can0 130#348000FF448109A5
(1775153459.826046) can0 140#0000000004251920
(1775153459.826284) can0 0A0#3754940E00210200
(1775153459.826526) can0 0A1#798E00001E000000
(1775153459.826771) can0 18F#00260000005E0000
(1775153459.827013) can0 260#001A1A3000000000
(1775153459.827265) can0 2A0#0000600000000000
(1775153459.827450) can0 2B0#FF7FFF06B5
(1775153459.827682) can0 316#051B940E1A21007F
(1775153459.827916) can0 329#4F7A7C101126000E
(1775153459.828147) can0 545#CA11008CD1FFCBFF
(1775153459.830271) can0 153#002100FF00FF90AF
(1775153459.830510) can0 220#270400000A001A10
(1775153459.835414) can0 002#0000000000000AD8
(1775153459.835811) can0 316#051B940E1A21007F
(1775153459.836056) can0 18F#00260000005E0000
(1775153459.836294) can0 0A0#3754940E00210200
(1775153459.836535) can0 0A1#798E00001E000000
(1775153459.836772) can0 130#328000FF33810A93
(1775153459.837014) can0 140#0000000006261AD0
(1775153459.837255) can0 260#001A1A3000000000
(1775153459.837508) can0 2A0#0000600000000000
(1775153459.837693) can0 2B0#FF7FFF0686
(1775153459.837925) can0 329#847A7C101126000E
(1775153459.838156) can0 545#CA11008CD1FFCBFF
(1775153459.840279) can0 4F0#0000000000000000
(1775153459.840516) can0 153#002100FF00FFA0BF
(1775153459.840756) can0 220#270400000A001A10
(1775153459.841003) can0 1F1#0800000000000000
(1775153459.845635) can0 002#0000000000000BC5
(1775153459.845950) can0 316#051B940E1A21007F
(1775153459.846196) can0 18F#00260000005E0000
(1775153459.846433) can0 0A0#3754940E00210200
(1775153459.846676) can0 0A1#798E00001E000000
(1775153459.846913) can0 130#318000FF48810BA1
(1775153459.847154) can0 140#0000000008291B67
(1775153459.847396) can0 260#001A1A3000000000
(1775153459.847647) can0 2A0#0000600000000000
(1775153459.847834) can0 2B0#FF7FFF0697
(1775153459.848065) can0 329#847A7C101126000E
(1775153459.848296) can0 545#CA11008CD1FFCBFF
(1775153459.850687) can0 153#002100FF00FFB0CF
(1775153459.850929) can0 220#250400000A001810
(1775153459.855549) can0 2B0#FF7FFF0668
(1775153459.855830) can0 002#0000000000000C96
(1775153459.856416) can0 130#308000FF69810C10
(1775153459.856652) can0 0A0#3754A90E00210200
(1775153459.856893) can0 0A1#798E00001E000000
(1775153459.857133) can0 140#000000000A201C21
(1775153459.857378) can0 18F#00260000005E0000
(1775153459.857620) can0 260#001A1A3000000000
(1775153459.857872) can0 2A0#0000600000000000
(1775153459.858102) can0 316#051BA90E1A21007F
(1775153459.858333) can0 329#847A7C101126000E
(1775153459.858563) can0 545#CA11008CCEFFCAFF
(1775153459.860174) can0 4F0#0000000000000000
(1775153459.860896) can0 153#002100FF00FFC0DF
(1775153459.861138) can0 220#250400000A001810
(1775153459.861381) can0 1F1#0800000000000000
(1775153459.865101) can0 2B0#FF7FFF0679
(1775153459.865785) can0 316#051BA90E1A21007F
(1775153459.866027) can0 260#001A1A3000000000
(1775153459.866274) can0 002#0000000000000D8B
(1775153459.866512) can0 0A0#3754A90E00210200
(1775153459.866754) can0 0A1#798E00001E000000
(1775153459.866993) can0 130#2F8000FF55810DCA
(1775153459.867231) can0 140#000000000C2F1D9A
(1775153459.867476) can0 18F#00260000005E0000
(1775153459.867728) can0 2A0#0000600000000000
(1775153459.867961) can0 329#847A7C101126000E
(1775153459.868189) can0 545#CA11008CCEFFCAFF
(1775153459.871107) can0 153#002100FF00FFD0EF
(1775153459.871351) can0 220#2B0400000A001710
(1775153459.874633) can0 2B0#FF7FFF064A
(1775153459.875700) can0 316#051BA90E1B21007F
(1775153459.875946) can0 18F#00260000005E0000
(1775153459.876183) can0 0A0#3754A90E00210200
(1775153459.876433) can0 002#0000000000000EAC
(1775153459.876675) can0 0A1#798E00001E000000
(1775153459.876916) can0 260#001B1B3000000000
(1775153459.877168) can0 2A0#0000600000000000
(1775153459.877406) can0 130#308000FF3E810ED8
(1775153459.877643) can0 140#000000000E221E85
(1775153459.877875) can0 329#847A7C101126000E
(1775153459.878104) can0 545#CA11008CCEFFD0FF
(1775153459.880242) can0 4F0#0000000000000000
(1775153459.881305) can0 153#002100FF00FFE0FF
(1775153459.881549) can0 220#2B0400000A001710
(1775153459.881797) can0 1F1#0800000000000000
(1775153459.884174) can0 2B0#FF7FFF065B
(1775153459.885700) can0 316#051BA90E1A21007F
(1775153459.885938) can0 0A0#3754A90E00210200
(1775153459.886179) can0 0A1#798E00001E000000
(1775153459.886425) can0 18F#00260000005E0000
(1775153459.886674) can0 002#0000000000000FB1
(1775153459.886916) can0 260#001A1A3000000000
(1775153459.887168) can0 2A0#0000600000000000
(1775153459.887409) can0 130#388000FF3F810F98
(1775153459.887655) can0 140#0000000010021FFC
(1775153459.887887) can0 329#847A7C101126000E
(1775153459.888118) can0 545#CA11008BCEFFCAFF
(1775153459.891531) can0 153#002100FF00FF001F
(1775153459.891770) can0 220#260400000A001710
(1775153459.893719) can0 2B0#FF7FFF062C
(1775153459.895648) can0 316#0519C20E1A21007F
(1775153459.895895) can0 18F#00260000005E0000
(1775153459.896132) can0 0A0#3754C20E00210200
(1775153459.896374) can0 0A1#798E00001E000000
(1775153459.896615) can0 260#001A1A3000000000
(1775153459.896867) can0 002#000000000000000A
(1775153459.897118) can0 2A0#0000600000000000
(1775153459.897350) can0 329#847A7C101126000E
(1775153459.897587) can0 130#358000FF43810087
(1775153459.897827) can0 140#00000000122110E5
(1775153459.898056) can0 545#CA11008CC2FFCCFF
(1775153459.901060) can0 4F0#0000000000000000
(1775153459.901722) can0 153#002100FF00FF102F
(1775153459.901969) can0 1F1#0800000000000000
(1775153459.902209) can0 220#260400000A001710
(1775153459.903222) can0 5E4#000000
(1775153459.903411) can0 2B0#FF7FFF063D
(1775153459.905684) can0 316#0519C20E1A21007F
(1775153459.905928) can0 18F#00260000005E0000
(1775153459.906166) can0 0A0#3754C20E00210200
(1775153459.906408) can0 0A1#798E00001E000000
(1775153459.906650) can0 260#001A1A3000000000
(1775153459.906899) can0 002#0000000000000117
(1775153459.907151) can0 2A0#0000600000000000
(1775153459.907382) can0 329#D37A7C101126000E
(1775153459.907620) can0 130#2A8000FF39810138
(1775153459.907861) can0 140#00000000142011B1
(1775153459.908093) can0 545#CA11008CC2FFC9FF
(1775153459.911945) can0 153#002100FF00FF203F
(1775153459.912184) can0 220#270400000A001910
(1775153459.912805) can0 2B0#FF7FFF060E
(1775153459.915607) can0 316#0519C20E1A21007F
(1775153459.915853) can0 18F#00260000005E0000
(1775153459.916089) can0 0A0#3754C20E00210200
(1775153459.916332) can0 0A1#798E00001E000000
(1775153459.916572) can0 260#001A1A3000000000
(1775153459.916824) can0 2A0#0000600000000000
(1775153459.917057) can0 329#D37A7C101126000E
(1775153459.917307) can0 002#0000000000000230
(1775153459.917540) can0 545#CA11008CC2FFC9FF
(1775153459.918060) can0 130#2D8000FF3B810292
(1775153459.918301) can0 140#0000000016201295
(1775153459.920037) can0 4F0#0000000000000000
(1775153459.922138) can0 153#002100FF00FF304F
(1775153459.922378) can0 220#270400000A001910
(1775153459.922626) can0 1F1#0800000000000000
(1775153459.922814) can0 2B0#FF7FFF061F
(1775153459.925582) can0 316#0519C70E1A21007F
(1775153459.925827) can0 18F#00260000005E0000
(1775153459.926063) can0 0A0#3754C70E00210200
(1775153459.926304) can0 0A1#798E00001E000000
(1775153459.926546) can0 260#001A1A3000000000
(1775153459.926798) can0 2A0#0000600000000000
(1775153459.927030) can0 329#D37A7C101126000E
(1775153459.927261) can0 545#CA11008CC2FFC9FF
(1775153459.927509) can0 002#000000000000032D
(1775153459.928124) can0 130#398000FF4A810398
(1775153459.928369) can0 140#00000000180013F4
(1775153459.931891) can0 2B0#FF7FFF06E0
(1775153459.932365) can0 153#002100FF00FF405F
(1775153459.932609) can0 220#260400000A001510
(1775153459.935672) can0 316#0519C70E1A21007F
(1775153459.935916) can0 18F#00260000005E0000
(1775153459.936151) can0 0A0#3754C70E00210200
(1775153459.936393) can0 0A1#798E00001E000000
(1775153459.936635) can0 260#001A1A3000000000
(1775153459.936887) can0 2A0#0000600000000000
(1775153459.937118) can0 329#D37A7C101126000E
(1775153459.937350) can0 545#CA11008CC2FFC9FF
(1775153459.937601) can0 002#000000000000047E
(1775153459.938192) can0 130#3B8000FF5881046A
(1775153459.938434) can0 140#00000000022914D3
(1775153459.940096) can0 4F0#0000000000000000
(1775153459.941431) can0 2B0#FF7FFF06F1
(1775153459.942554) can0 153#002100FF00FF506F
(1775153459.942798) can0 220#260400000A001510
(1775153459.943045) can0 1F1#0800000000000000
(1775153459.945591) can0 316#0519C70E1A21007F
(1775153459.945827) can0 0A0#3754C70E00210200
(1775153459.946068) can0 0A1#798E00001E000000
(1775153459.946314) can0 18F#00260000005E0000
(1775153459.946556) can0 260#001A1A3000000000
(1775153459.946807) can0 2A0#0000600000000000
(1775153459.947039) can0 329#D37A7C101126000E
(1775153459.947270) can0 545#CA11008CC2FFC9FF
(1775153459.947726) can0 002#0000000000000563
(1775153459.948309) can0 130#378000FF5781054A
(1775153459.948548) can0 140#00000000042515BC
(1775153459.950974) can0 2B0#FF7FFF06C2
(1775153459.952782) can0 153#002100FF00FF607F
(1775153459.953029) can0 220#290400000A001C10
(1775153459.955522) can0 316#051AAA0E1A21007F
(1775153459.955754) can0 329#D37A7C101126000E
(1775153459.955990) can0 0A0#3754AA0E00210200
(1775153459.956231) can0 0A1#798E00001E000000
(1775153459.956476) can0 18F#00260000005E0000
(1775153459.956718) can0 260#001A1A3000000000
(1775153459.956970) can0 2A0#0000600000000000
(1775153459.957199) can0 545#CA11008CC9FFCAFF
(1775153459.957922) can0 002#0000000000000644
(1775153459.958509) can0 130#308000FF3E810630
(1775153459.958750) can0 140#000000000626164C
(1775153459.959941) can0 4F0#0000000000000000
(1775153459.960614) can0 2B0#FF7FFF06D3
(1775153459.962973) can0 153#002100FF00FF708F
(1775153459.963221) can0 220#290400000A001C10
(1775153459.963467) can0 1F1#0800000000000000
(1775153459.965560) can0 316#051AAA0E1A21007F
(1775153459.965801) can0 260#001A1A3000000000
(1775153459.966037) can0 0A0#3754AA0E00210200
(1775153459.966279) can0 0A1#798E00001E000000
(1775153459.966524) can0 18F#00260000005E0000
(1775153459.966776) can0 2A0#0000600000000000
(1775153459.967008) can0 329#D37A7C101126000E
(1775153459.967237) can0 545#CA11008CC9FFCAFF
(1775153459.968146) can0 002#0000000000000759
(1775153459.968944) can0 130#308000FF2E810735
(1775153459.969188) can0 140#00000000082917FB
(1775153459.970152) can0 2B0#FF7FFF06A4
(1775153459.973204) can0 153#002100FF00FF809F
(1775153459.973443) can0 220#260400000A001710
(1775153459.975642) can0 316#051AAA0E1A21007F
(1775153459.975889) can0 18F#00260000005E0000
(1775153459.976123) can0 0A0#3754AA0E00210200
(1775153459.976364) can0 0A1#798E00001E000000
(1775153459.976607) can0 260#001A1A3000000000
(1775153459.976857) can0 2A0#0000600000000000
(1775153459.977090) can0 329#D37A7C101126000E
(1775153459.977318) can0 545#CA11008CC9FFCAFF
(1775153459.978343) can0 002#00000000000008E2
(1775153459.978925) can0 130#318000FF49810809
(1775153459.979168) can0 140#000000000A201855
(1775153459.979618) can0 2B0#FF7FFF06B5
(1775153459.979869) can0 4F0#0000000000000000
(1775153459.983393) can0 153#002100FF00FF90AF
(1775153459.983640) can0 1F1#0800000000000000
(1775153459.983880) can0 220#260400000A001710
(1775153459.985447) can0 316#051C930E1A21007F
(1775153459.985682) can0 329#0E7A7C101126000E
(1775153459.985918) can0 0A0#3754930E00210200
(1775153459.986160) can0 0A1#798E00001E000000
(1775153459.986405) can0 18F#00260000005E0000
(1775153459.986647) can0 260#001A1A3000000000
(1775153459.986899) can0 2A0#0000600000000000
(1775153459.987130) can0 545#CA11008CD4FFCBFF
(1775153459.988566) can0 002#00000000000009FF
(1775153459.989158) can0 130#2E8000FF4881097E
(1775153459.989397) can0 140#000000000C2F19EE
(1775153459.989583) can0 2B0#FF7FFF0686
(1775153459.993619) can0 153#002100FF00FFA0BF
(1775153459.993860) can0 220#270400000A001710
(1775153459.995441) can0 316#051C930E1A21007F
(1775153459.995677) can0 0A0#3754930E00210200
(1775153459.995919) can0 0A1#798E00001E000000
(1775153459.996164) can0 18F#00260000005E0000
(1775153459.996406) can0 260#001A1A3000000000
(1775153459.996657) can0 2A0#0000600000000000
(1775153459.996893) can0 329#0E7A7C101126000E
(1775153459.997125) can0 545#CA11008CD4FFCBFF
(1775153459.998761) can0 002#0000000000000AD8
(1775153459.998947) can0 2B0#FF7FFF0697
(1775153459.999342) can0 130#308000FF34810AA3
(1775153459.999580) can0 140#000000000E221AF1
(1775153460.000796) can0 4F0#0000000000000000
(1775153460.003422) can0 5E4#000000
(1775153460.003811) can0 153#002100FF00FFB0CF
(1775153460.004053) can0 220#270400000A001710
(1775153460.004300) can0 1F1#0800000000000000
(1775153460.005565) can0 316#051C930E1A21007F
(1775153460.005812) can0 18F#00260000005E0000
(1775153460.006046) can0 0A0#3754930E00210200
(1775153460.006288) can0 0A1#798E00001E000000
(1775153460.006530) can0 260#001A1A3000000000
(1775153460.006781) can0 2A0#0000600000000000
(1775153460.007018) can0 329#0E7A7C101126000E
(1775153460.007249) can0 545#CA11008CD4FFCBFF
(1775153460.008251) can0 2B0#FF7FFF0668
(1775153460.008985) can0 002#0000000000000BC5
(1775153460.009854) can0 130#358000FF40810BC4
(1775153460.010097) can0 140#0000000010021B88
(1775153460.014043) can0 153#002100FF00FFC0DF
(1775153460.014284) can0 220#250400000A001710
(1775153460.016167) can0 316#051BA70E1A21007F
(1775153460.016412) can0 18F#00260000005E0000
(1775153460.016650) can0 0A0#3754A70E00210200
(1775153460.016892) can0 0A1#798E00001E000000
(1775153460.017133) can0 260#001A1A3000000000
(1775153460.017385) can0 2A0#0000600000000000
(1775153460.017621) can0 329#0E7A7C101126000E
(1775153460.017807) can0 2B0#FF7FFF0679
(1775153460.018036) can0 545#CA11008CCFFFCAFF
(1775153460.019182) can0 002#0000000000000C96
(1775153460.019595) can0 4F0#0000000000000000
(1775153460.019843) can0 130#328000FF58810C0D
(1775153460.020083) can0 140#0000000012211C79
(1775153460.024234) can0 153#002100FF00FFD0EF
(1775153460.024475) can0 220#250400000A001710
(1775153460.024723) can0 1F1#0800000000000000
(1775153460.025356) can0 316#051BA70E1A21007F
